Time Stamp,ID,Extended,Dir,Bus,LEN,D1,D2,D3,D4,D5,D6,D7,D8
6626694,000003C0,false,Tx,0,8,00,00,02,00,00,00,00,00,
8752,000003C0,false,Tx,0,8,00,00,02,00,00,00,00,00,
20067,000003C0,false,Tx,0,8,00,00,02,00,00,00,00,00,
29877,000003C0,false,Tx,0,8,00,00,02,00,00,00,00,00,
39950,000003C0,false,Tx,0,8,00,00,02,00,00,00,00,00,
49852,000003C0,false,Tx,0,8,00,00,02,00,00,00,00,00,
59887,000003C0,false,Tx,0,8,00,00,02,00,00,00,00,00,
69857,000003C0,false,Tx,0,8,00,00,02,00,00,00,00,00,
79895,000003C0,false,Tx,0,8,00,00,02,00,00,00,00,00,
89931,000003C0,false,Tx,0,8,00,00,02,00,00,00,00,00,
99906,000003C0,false,Tx,0,8,00,00,02,00,00,00,00,00,
109949,000003C0,false,Tx,0,8,00,00,02,00,00,00,00,00,
119887,000003C0,false,Tx,0,8,00,00,02,00,00,00,00,00,
129909,000003C0,false,Tx,0,8,00,00,02,00,00,00,00,00,
139896,000003C0,false,Tx,0,8,00,00,02,00,00,00,00,00,
149908,000003C0,false,Tx,0,8,00,00,02,00,00,00,00,00,
159904,000003C0,false,Tx,0,8,00,00,02,00,00,00,00,00,
169888,000003C0,false,Tx,0,8,00,00,02,00,00,00,00,00,
179901,000003C0,false,Tx,0,8,00,00,02,00,00,00,00,00,
189875,000003C0,false,Tx,0,8,00,00,02,00,00,00,00,00,
199899,000003C0,false,Tx,0,8,00,00,02,00,00,00,00,00,
209929,000003C0,false,Tx,0,8,00,00,02,00,00,00,00,00,
219880,000003C0,false,Tx,0,8,00,00,02,00,00,00,00,00,
229833,000003C0,false,Tx,0,8,00,00,02,00,00,00,00,00,
239869,000003C0,false,Tx,0,8,00,00,02,00,00,00,00,00,
249846,000003C0,false,Tx,0,8,00,00,02,00,00,00,00,00,
259847,000003C0,false,Tx,0,8,00,00,02,00,00,00,00,00,
269854,000003C0,false,Tx,0,8,00,00,02,00,00,00,00,00,
337752,000003C0,false,Tx,0,8,00,00,02,00,00,00,00,00,
347911,000003C0,false,Tx,0,8,00,00,02,00,00,00,00,00,
357900,000003C0,false,Tx,0,8,00,00,02,00,00,00,00,00,
367909,000003C0,false,Tx,0,8,00,00,02,00,00,00,00,00,
377964,000003C0,false,Tx,0,8,00,00,02,00,00,00,00,00,
387882,000003C0,false,Tx,0,8,00,00,02,00,00,00,00,00,
397921,000003C0,false,Tx,0,8,00,00,02,00,00,00,00,00,
407983,000003C0,false,Tx,0,8,00,00,02,00,00,00,00,00,
417941,000003C0,false,Tx,0,8,00,00,02,00,00,00,00,00,
427903,000003C0,false,Tx,0,8,00,00,02,00,00,00,00,00,
437880,000003C0,false,Tx,0,8,00,00,02,00,00,00,00,00,
447916,000003C0,false,Tx,0,8,00,00,02,00,00,00,00,00,
457978,000003C0,false,Tx,0,8,00,00,02,00,00,00,00,00,
467978,000003C0,false,Tx,0,8,00,00,02,00,00,00,00,00,
477920,000003C0,false,Tx,0,8,00,00,02,00,00,00,00,00,
487918,000003C0,false,Tx,0,8,00,00,02,00,00,00,00,00,
497918,000003C0,false,Tx,0,8,00,00,02,00,00,00,00,00,
507937,000003C0,false,Tx,0,8,00,00,02,00,00,00,00,00,
517966,000003C0,false,Tx,0,8,00,00,02,00,00,00,00,00,
527982,000003C0,false,Tx,0,8,00,00,02,00,00,00,00,00,
537932,000003C0,false,Tx,0,8,00,00,02,00,00,00,00,00,
595076,000003C0,false,Tx,0,8,00,00,02,00,00,00,00,00,
621019,000003C0,false,Tx,0,8,00,00,02,00,00,00,00,00,
630873,000003C0,false,Tx,0,8,00,00,02,00,00,00,00,00,
640900,000003C0,false,Tx,0,8,00,00,02,00,00,00,00,00,
650902,000003C0,false,Tx,0,8,00,00,02,00,00,00,00,00,
660913,000003C0,false,Tx,0,8,00,00,02,00,00,00,00,00,
670908,000003C0,false,Tx,0,8,00,00,02,00,00,00,00,00,
680909,000003C0,false,Tx,0,8,00,00,02,00,00,00,00,00,
690924,000003C0,false,Tx,0,8,00,00,02,00,00,00,00,00,
700908,000003C0,false,Tx,0,8,00,00,02,00,00,00,00,00,
711097,000003C0,false,Tx,0,8,00,00,02,00,00,00,00,00,
720925,000003C0,false,Tx,0,8,00,00,02,00,00,00,00,00,
730934,000003C0,false,Tx,0,8,00,00,02,00,00,00,00,00,
740925,000003C0,false,Tx,0,8,00,00,02,00,00,00,00,00,
750922,000003C0,false,Tx,0,8,00,00,02,00,00,00,00,00,
760910,000003C0,false,Tx,0,8,00,00,02,00,00,00,00,00,
770927,000003C0,false,Tx,0,8,00,00,02,00,00,00,00,00,
780932,000003C0,false,Tx,0,8,00,00,02,00,00,00,00,00,
791004,000003C0,false,Tx,0,8,00,00,02,00,00,00,00,00,
854466,000003C0,false,Tx,0,8,00,00,02,00,00,00,00,00,
864937,000003C0,false,Tx,0,8,00,00,02,00,00,00,00,00,
874930,000003C0,false,Tx,0,8,00,00,02,00,00,00,00,00,
884914,000003C0,false,Tx,0,8,00,00,02,00,00,00,00,00,
894951,000003C0,false,Tx,0,8,00,00,02,00,00,00,00,00,
904936,000003C0,false,Tx,0,8,00,00,02,00,00,00,00,00,
914936,000003C0,false,Tx,0,8,00,00,02,00,00,00,00,00,
924948,000003C0,false,Tx,0,8,00,00,02,00,00,00,00,00,
934888,000003C0,false,Tx,0,8,00,00,02,00,00,00,00,00,
944959,000003C0,false,Tx,0,8,00,00,02,00,00,00,00,00,
18445127489179385801,000001A0,false,Rx,0,8,74,00,71,F2,3F,00,00,00,
18445127489179386057,000001AC,false,Rx,0,8,13,00,FF,F3,BF,FF,19,03,
18445127489179386313,000002C0,false,Rx,0,8,9A,00,00,37,E0,3F,02,00,
954986,000003C0,false,Tx,0,8,00,00,02,00,00,00,00,00,
18445127489179395870,1B000085,true,Rx,0,8,85,40,04,01,00,00,00,00,
964942,000003C0,false,Tx,0,8,00,00,02,00,00,00,00,00,
18445127489179405811,000001A0,false,Rx,0,8,C3,01,71,F2,3F,00,00,00,
18445127489179406024,000001AC,false,Rx,0,8,DD,01,FF,F3,BF,FF,19,03,
974934,000003C0,false,Tx,0,8,00,00,02,00,00,00,00,00,
984949,000003C0,false,Tx,0,8,00,00,02,00,00,00,00,00,
18445127489179425807,000001A0,false,Rx,0,8,B2,02,71,F2,3F,00,00,00,
18445127489179426063,000001AC,false,Rx,0,8,27,02,FF,F3,BF,FF,19,03,
994939,000003C0,false,Tx,0,8,00,00,02,00,00,00,00,00,
1004935,000003C0,false,Tx,0,8,00,00,02,00,00,00,00,00,
18445127489179445859,000001A0,false,Rx,0,8,C2,03,71,F2,3F,00,00,00,
18445127489179446115,000001AC,false,Rx,0,8,ED,03,FF,F3,BF,FF,19,03,
1014886,000003C0,false,Tx,0,8,00,00,02,00,00,00,00,00,
1024922,000003C0,false,Tx,0,8,00,00,02,00,00,00,00,00,
18445127489179465826,000001A0,false,Rx,0,8,CE,04,71,F2,3F,00,00,00,
18445127489179466039,000001AC,false,Rx,0,8,A8,04,FF,F3,BF,FF,19,03,
18445127489179466295,000002C0,false,Rx,0,8,42,01,00,37,E0,3F,02,00,
1034940,000003C0,false,Tx,0,8,00,00,02,00,00,00,00,00,
1044925,000003C0,false,Tx,0,8,00,00,02,00,00,00,00,00,
18445127489179485836,000001A0,false,Rx,0,8,FB,05,71,F2,3F,00,00,00,
18445127489179486049,000001AC,false,Rx,0,8,09,05,FF,F3,BF,FF,19,03,
18445127489179505888,000001A0,false,Rx,0,8,D9,06,71,F2,3F,00,00,00,
18445127489179506101,000001AC,false,Rx,0,8,DE,06,FF,F3,BF,FF,19,03,
18445127489179506400,17F00085,true,Rx,0,8,20,85,00,00,00,00,01,80,
18445127489179506656,1A5554A7,true,Rx,0,8,02,A0,02,00,00,00,00,80,
18445127489179525812,000001A0,false,Rx,0,8,31,07,71,F2,3F,00,00,00,
18445127489179526068,000001AC,false,Rx,0,8,41,07,FF,F3,BF,FF,19,03,
18445127489179545821,000001A0,false,Rx,0,8,A0,08,71,F2,3F,00,00,00,
18445127489179546077,000001AC,false,Rx,0,8,AE,08,FF,F3,BF,FF,19,03,
18445127489179546290,000002C0,false,Rx,0,8,BD,02,00,37,E0,3F,02,00,
1128547,000003C0,false,Tx,0,8,00,00,02,00,00,00,00,00,
18445127489179565831,000001A0,false,Rx,0,8,36,09,71,F2,3F,00,00,00,
18445127489179566044,000001AC,false,Rx,0,8,6F,09,FF,F3,BF,FF,19,03,
1138019,000003C0,false,Tx,0,8,00,00,02,00,00,00,00,00,
1147950,000003C0,false,Tx,0,8,00,00,02,00,00,00,00,00,
18445127489179585797,000001A0,false,Rx,0,8,14,0A,71,F2,3F,00,00,00,
18445127489179586053,000001AC,false,Rx,0,8,43,0A,FF,F3,BF,FF,19,03,
1157969,000003C0,false,Tx,0,8,00,00,02,00,00,00,00,00,
18445127489179595909,1B000085,true,Rx,0,8,85,40,04,01,00,00,00,00,
1167942,000003C0,false,Tx,0,8,00,00,02,00,00,00,00,00,
18445127489179605807,000001A0,false,Rx,0,8,71,0B,71,F2,3F,00,00,00,
18445127489179606020,000001AC,false,Rx,0,8,EB,0B,FF,F3,BF,FF,19,03,
1177934,000003C0,false,Tx,0,8,00,00,02,00,00,00,00,00,
1187928,000003C0,false,Tx,0,8,00,00,02,00,00,00,00,00,
18445127489179625816,000001A0,false,Rx,0,8,AB,0C,71,F2,3F,00,00,00,
18445127489179626029,000001AC,false,Rx,0,8,AD,0C,FF,F3,BF,FF,19,03,
18445127489179626285,000002C0,false,Rx,0,8,05,03,00,37,E0,3F,02,00,
1197940,000003C0,false,Tx,0,8,00,00,02,00,00,00,00,00,
1207944,000003C0,false,Tx,0,8,00,00,02,00,00,00,00,00,
18445127489179645783,000001A0,false,Rx,0,8,E9,0D,71,F2,3F,00,00,00,
18445127489179646039,000001AC,false,Rx,0,8,95,0D,FF,F3,BF,FF,19,03,
1218005,000003C0,false,Tx,0,8,00,00,02,00,00,00,00,00,
1228183,000003C0,false,Tx,0,8,00,00,02,00,00,00,00,00,
18445127489179665792,000001A0,false,Rx,0,8,90,0E,71,F2,3F,00,00,00,
18445127489179666048,000001AC,false,Rx,0,8,F2,0E,FF,F3,BF,FF,19,03,
1237881,000003C0,false,Tx,0,8,00,00,02,00,00,00,00,00,
1247905,000003C0,false,Tx,0,8,00,00,02,00,00,00,00,00,
18445127489179685802,000001A0,false,Rx,0,8,83,0F,71,F2,3F,00,00,00,
18445127489179686058,000001AC,false,Rx,0,8,B0,0F,FF,F3,BF,FF,19,03,
1257872,000003C0,false,Tx,0,8,00,00,02,00,00,00,00,00,
1267897,000003C0,false,Tx,0,8,00,00,02,00,00,00,00,00,
18445127489179705811,000001A0,false,Rx,0,8,74,00,71,F2,3F,00,00,00,
18445127489179706024,000001AC,false,Rx,0,8,13,00,FF,F3,BF,FF,19,03,
18445127489179706280,000002C0,false,Rx,0,8,9C,04,00,37,E0,3F,02,00,
1277901,000003C0,false,Tx,0,8,00,00,02,00,00,00,00,00,
1288438,000003C0,false,Tx,0,8,00,00,02,00,00,00,00,00,
18445127489179725778,000001A0,false,Rx,0,8,C3,01,71,F2,3F,00,00,00,
18445127489179726034,000001AC,false,Rx,0,8,DD,01,FF,F3,BF,FF,19,03,
1297902,000003C0,false,Tx,0,8,00,00,02,00,00,00,00,00,
1307920,000003C0,false,Tx,0,8,00,00,02,00,00,00,00,00,
18445127489179745787,000001A0,false,Rx,0,8,B2,02,71,F2,3F,00,00,00,
18445127489179746043,000001AC,false,Rx,0,8,27,02,FF,F3,BF,FF,19,03,
1317926,000003C0,false,Tx,0,8,00,00,02,00,00,00,00,00,
18445127489179765797,000001A0,false,Rx,0,8,C2,03,71,F2,3F,00,00,00,
18445127489179766010,000001AC,false,Rx,0,8,ED,03,FF,F3,BF,FF,19,03,
18445127489179785806,000001A0,false,Rx,0,8,CE,04,71,F2,3F,00,00,00,
18445127489179786019,000001AC,false,Rx,0,8,A8,04,FF,F3,BF,FF,19,03,
18445127489179786275,000002C0,false,Rx,0,8,88,05,00,37,E0,3F,02,00,
18445127489179795832,1B000085,true,Rx,0,8,85,40,04,01,00,00,00,00,
18445127489179805773,000001A0,false,Rx,0,8,FB,05,71,F2,3F,00,00,00,
18445127489179806029,000001AC,false,Rx,0,8,09,05,FF,F3,BF,FF,19,03,
1377573,000003C0,false,Tx,0,8,00,00,02,00,00,00,00,00,
1388003,000003C0,false,Tx,0,8,00,00,02,00,00,00,00,00,
18445127489179825782,000001A0,false,Rx,0,8,D9,06,71,F2,3F,00,00,00,
18445127489179826038,000001AC,false,Rx,0,8,DE,06,FF,F3,BF,FF,19,03,
1397984,000003C0,false,Tx,0,8,00,00,02,00,00,00,00,00,
1407996,000003C0,false,Tx,0,8,00,00,02,00,00,00,00,00,
18445127489179845792,000001A0,false,Rx,0,8,31,07,71,F2,3F,00,00,00,
18445127489179846005,000001AC,false,Rx,0,8,41,07,FF,F3,BF,FF,19,03,
1417965,000003C0,false,Tx,0,8,00,00,02,00,00,00,00,00,
1427938,000003C0,false,Tx,0,8,00,00,02,00,00,00,00,00,
18445127489179865801,000001A0,false,Rx,0,8,A0,08,71,F2,3F,00,00,00,
18445127489179866014,000001AC,false,Rx,0,8,AE,08,FF,F3,BF,FF,19,03,
18445127489179866270,000002C0,false,Rx,0,8,75,06,00,37,E0,3F,02,00,
1437937,000003C0,false,Tx,0,8,00,00,02,00,00,00,00,00,
1447953,000003C0,false,Tx,0,8,00,00,02,00,00,00,00,00,
18445127489179885768,000001A0,false,Rx,0,8,36,09,71,F2,3F,00,00,00,
18445127489179886024,000001AC,false,Rx,0,8,6F,09,FF,F3,BF,FF,19,03,
1457949,000003C0,false,Tx,0,8,00,00,02,00,00,00,00,00,
1467950,000003C0,false,Tx,0,8,00,00,02,00,00,00,00,00,
18445127489179905777,000001A0,false,Rx,0,8,14,0A,71,F2,3F,00,00,00,
18445127489179905991,000001AC,false,Rx,0,8,43,0A,FF,F3,BF,FF,19,03,
1477945,000003C0,false,Tx,0,8,00,00,02,00,00,00,00,00,
1487948,000003C0,false,Tx,0,8,00,00,02,00,00,00,00,00,
18445127489179925787,000001A0,false,Rx,0,8,71,0B,71,F2,3F,00,00,00,
18445127489179926000,000001AC,false,Rx,0,8,EB,0B,FF,F3,BF,FF,19,03,
1497951,000003C0,false,Tx,0,8,00,00,02,00,00,00,00,00,
1507975,000003C0,false,Tx,0,8,00,00,02,00,00,00,00,00,
18445127489179945753,000001A0,false,Rx,0,8,AB,0C,71,F2,3F,00,00,00,
18445127489179946009,000001AC,false,Rx,0,8,AD,0C,FF,F3,BF,FF,19,03,
18445127489179946265,000002C0,false,Rx,0,8,D5,07,00,37,E0,3F,02,00,
1518016,000003C0,false,Tx,0,8,00,00,02,00,00,00,00,00,
1527948,000003C0,false,Tx,0,8,00,00,02,00,00,00,00,00,
18445127489179965763,000001A0,false,Rx,0,8,E9,0D,71,F2,3F,00,00,00,
18445127489179965976,000001AC,false,Rx,0,8,95,0D,FF,F3,BF,FF,19,03,
1537972,000003C0,false,Tx,0,8,00,00,02,00,00,00,00,00,
1547964,000003C0,false,Tx,0,8,00,00,02,00,00,00,00,00,
18445127489179985772,000001A0,false,Rx,0,8,90,0E,71,F2,3F,00,00,00,
18445127489179985986,000001AC,false,Rx,0,8,F2,0E,FF,F3,BF,FF,19,03,
1557956,000003C0,false,Tx,0,8,00,00,02,00,00,00,00,00,
18445127489179995841,1B000085,true,Rx,0,8,85,40,04,01,00,00,00,00,
1567954,000003C0,false,Tx,0,8,00,00,02,00,00,00,00,00,
18445127489180005739,000001A0,false,Rx,0,8,83,0F,71,F2,3F,00,00,00,
18445127489180005995,000001AC,false,Rx,0,8,B0,0F,FF,F3,BF,FF,19,03,
18445127489180006294,17F00085,true,Rx,0,8,20,85,00,00,00,00,01,80,
18445127489180006550,1A5554A7,true,Rx,0,8,02,A0,02,00,00,00,00,80,
1577959,000003C0,false,Tx,0,8,00,00,02,00,00,00,00,00,
18445127489180025748,000001A0,false,Rx,0,8,74,00,71,F2,3F,00,00,00,
18445127489180026004,000001AC,false,Rx,0,8,13,00,FF,F3,BF,FF,19,03,
18445127489180026260,000002C0,false,Rx,0,8,84,08,00,37,E0,3F,02,00,
18445127489180045758,000001A0,false,Rx,0,8,C3,01,71,F2,3F,00,00,00,
18445127489180046014,000001AC,false,Rx,0,8,DD,01,FF,F3,BF,FF,19,03,
1619121,000003C0,false,Tx,0,8,00,00,02,00,00,00,00,00,
1628799,000003C0,false,Tx,0,8,00,00,02,00,00,00,00,00,
18445127489180065767,000001A0,false,Rx,0,8,B2,02,71,F2,3F,00,00,00,
18445127489180065981,000001AC,false,Rx,0,8,27,02,FF,F3,BF,FF,19,03,
1638794,000003C0,false,Tx,0,8,00,00,02,00,00,00,00,00,
1648801,000003C0,false,Tx,0,8,00,00,02,00,00,00,00,00,
18445127489180085734,000001A0,false,Rx,0,8,C2,03,71,F2,3F,00,00,00,
18445127489180085990,000001AC,false,Rx,0,8,ED,03,FF,F3,BF,FF,19,03,
1658818,000003C0,false,Tx,0,8,00,00,02,00,00,00,00,00,
1668817,000003C0,false,Tx,0,8,00,00,02,00,00,00,00,00,
18445127489180105786,000001A0,false,Rx,0,8,CE,04,71,F2,3F,00,00,00,
18445127489180106042,000001AC,false,Rx,0,8,A8,04,FF,F3,BF,FF,19,03,
18445127489180106255,000002C0,false,Rx,0,8,71,09,00,37,E0,3F,02,00,
1678819,000003C0,false,Tx,0,8,00,00,02,00,00,00,00,00,
1688792,000003C0,false,Tx,0,8,00,00,02,00,00,00,00,00,
18445127489180125710,000001A0,false,Rx,0,8,FB,05,71,F2,3F,00,00,00,
18445127489180125966,000001AC,false,Rx,0,8,09,05,FF,F3,BF,FF,19,03,
1698823,000003C0,false,Tx,0,8,00,00,02,00,00,00,00,00,
1708825,000003C0,false,Tx,0,8,00,00,02,00,00,00,00,00,
18445127489180145762,000001A0,false,Rx,0,8,D9,06,71,F2,3F,00,00,00,
18445127489180145976,000001AC,false,Rx,0,8,DE,06,FF,F3,BF,FF,19,03,
1718824,000003C0,false,Tx,0,8,00,00,02,00,00,00,00,00,
1728820,000003C0,false,Tx,0,8,00,00,02,00,00,00,00,00,
18445127489180165772,000001A0,false,Rx,0,8,31,07,71,F2,3F,00,00,00,
18445127489180165985,000001AC,false,Rx,0,8,41,07,FF,F3,BF,FF,19,03,
1738813,000003C0,false,Tx,0,8,00,00,02,00,00,00,00,00,
1748812,000003C0,false,Tx,0,8,00,00,02,00,00,00,00,00,
18445127489180185738,000001A0,false,Rx,0,8,A0,08,71,F2,3F,00,00,00,
18445127489180185994,000001AC,false,Rx,0,8,AE,08,FF,F3,BF,FF,19,03,
18445127489180186208,000002C0,false,Rx,0,8,C5,0A,00,37,E0,3F,02,00,
1758814,000003C0,false,Tx,0,8,00,00,02,00,00,00,00,00,
18445127489180195807,1B000085,true,Rx,0,8,85,40,04,01,00,00,00,00,
1768846,000003C0,false,Tx,0,8,00,00,02,00,00,00,00,00,
18445127489180205748,000001A0,false,Rx,0,8,36,09,71,F2,3F,00,00,00,
18445127489180205961,000001AC,false,Rx,0,8,6F,09,FF,F3,BF,FF,19,03,
18445127489180206260,1A555510,true,Rx,0,8,80,34,4E,30,30,D5,00,00,
1778823,000003C0,false,Tx,0,8,00,00,02,00,00,00,00,00,
1788863,000003C0,false,Tx,0,8,00,00,02,00,00,00,00,00,
18445127489180225800,000001A0,false,Rx,0,8,14,0A,71,F2,3F,00,00,00,
18445127489180226013,000001AC,false,Rx,0,8,43,0A,FF,F3,BF,FF,19,03,
1798822,000003C0,false,Tx,0,8,00,00,02,00,00,00,00,00,
1808814,000003C0,false,Tx,0,8,00,00,02,00,00,00,00,00,
18445127489180245724,000001A0,false,Rx,0,8,71,0B,71,F2,3F,00,00,00,
18445127489180245980,000001AC,false,Rx,0,8,EB,0B,FF,F3,BF,FF,19,03,
1818815,000003C0,false,Tx,0,8,00,00,02,00,00,00,00,00,
1828827,000003C0,false,Tx,0,8,00,00,02,00,00,00,00,00,
18445127489180265733,000001A0,false,Rx,0,8,AB,0C,71,F2,3F,00,00,00,
18445127489180265947,000001AC,false,Rx,0,8,AD,0C,FF,F3,BF,FF,19,03,
18445127489180266203,000002C0,false,Rx,0,8,80,0B,00,37,E0,3F,02,00,
18445127489180285743,000001A0,false,Rx,0,8,E9,0D,71,F2,3F,00,00,00,
18445127489180285956,000001AC,false,Rx,0,8,95,0D,FF,F3,BF,FF,19,03,
1861524,000003C0,false,Tx,0,8,00,00,02,00,00,00,00,00,
1870837,000003C0,false,Tx,0,8,00,00,02,00,00,00,00,00,
18445127489180305795,000001A0,false,Rx,0,8,90,0E,71,F2,3F,00,00,00,
18445127489180306008,000001AC,false,Rx,0,8,F2,0E,FF,F3,BF,FF,19,03,
1880827,000003C0,false,Tx,0,8,00,00,02,00,00,00,00,00,
1890851,000003C0,false,Tx,0,8,00,00,02,00,00,00,00,00,
18445127489180325762,000001A0,false,Rx,0,8,83,0F,71,F2,3F,00,00,00,
18445127489180326018,000001AC,false,Rx,0,8,B0,0F,FF,F3,BF,FF,19,03,
1900822,000003C0,false,Tx,0,8,00,00,02,00,00,00,00,00,
1910819,000003C0,false,Tx,0,8,00,00,02,00,00,00,00,00,
18445127489180345771,000001A0,false,Rx,0,8,74,00,71,F2,3F,00,00,00,
18445127489180346027,000001AC,false,Rx,0,8,13,00,FF,F3,BF,FF,19,03,
18445127489180346283,000002C0,false,Rx,0,8,D8,0C,00,37,E0,3F,02,00,
1920818,000003C0,false,Tx,0,8,00,00,02,00,00,00,00,00,
1930787,000003C0,false,Tx,0,8,00,00,02,00,00,00,00,00,
18445127489180365781,000001A0,false,Rx,0,8,C3,01,71,F2,3F,00,00,00,
18445127489180365994,000001AC,false,Rx,0,8,DD,01,FF,F3,BF,FF,19,03,
1940819,000003C0,false,Tx,0,8,00,00,02,00,00,00,00,00,
1950823,000003C0,false,Tx,0,8,00,00,02,00,00,00,00,00,
18445127489180385705,000001A0,false,Rx,0,8,B2,02,71,F2,3F,00,00,00,
18445127489180385961,000001AC,false,Rx,0,8,27,02,FF,F3,BF,FF,19,03,
1960819,000003C0,false,Tx,0,8,00,00,02,00,00,00,00,00,
18445127489180395816,1B000085,true,Rx,0,8,85,40,04,01,00,00,00,00,
1970823,000003C0,false,Tx,0,8,00,00,02,00,00,00,00,00,
18445127489180405757,000001A0,false,Rx,0,8,C2,03,71,F2,3F,00,00,00,
18445127489180406013,000001AC,false,Rx,0,8,ED,03,FF,F3,BF,FF,19,03,
1980818,000003C0,false,Tx,0,8,00,00,02,00,00,00,00,00,
1990818,000003C0,false,Tx,0,8,00,00,02,00,00,00,00,00,
18445127489180425691,000001A0,false,Rx,0,8,CE,04,71,F2,3F,00,00,00,
18445127489180425947,000001AC,false,Rx,0,8,A8,04,FF,F3,BF,FF,19,03,
18445127489180426161,000002C0,false,Rx,0,8,B0,0D,00,37,E0,3F,02,00,
2000820,000003C0,false,Tx,0,8,00,00,02,00,00,00,00,00,
2010827,000003C0,false,Tx,0,8,00,00,02,00,00,00,00,00,
18445127489180445701,000001A0,false,Rx,0,8,FB,05,71,F2,3F,00,00,00,
18445127489180445914,000001AC,false,Rx,0,8,09,05,FF,F3,BF,FF,19,03,
2020822,000003C0,false,Tx,0,8,00,00,02,00,00,00,00,00,
2030794,000003C0,false,Tx,0,8,00,00,02,00,00,00,00,00,
18445127489180465753,000001A0,false,Rx,0,8,D9,06,71,F2,3F,00,00,00,
18445127489180465966,000001AC,false,Rx,0,8,DE,06,FF,F3,BF,FF,19,03,
2040821,000003C0,false,Tx,0,8,00,00,02,00,00,00,00,00,
2050825,000003C0,false,Tx,0,8,00,00,02,00,00,00,00,00,
18445127489180485720,000001A0,false,Rx,0,8,31,07,71,F2,3F,00,00,00,
18445127489180485976,000001AC,false,Rx,0,8,41,07,FF,F3,BF,FF,19,03,
2060823,000003C0,false,Tx,0,8,00,00,02,00,00,00,00,00,
2070822,000003C0,false,Tx,0,8,00,00,02,00,00,00,00,00,
18445127489180505729,000001A0,false,Rx,0,8,A0,08,71,F2,3F,00,00,00,
18445127489180505942,000001AC,false,Rx,0,8,AE,08,FF,F3,BF,FF,19,03,
18445127489180506198,000002C0,false,Rx,0,8,2E,0E,00,37,E0,3F,02,00,
18445127489180506497,17F00085,true,Rx,0,8,20,85,00,00,00,00,01,80,
18445127489180506753,1A5554A7,true,Rx,0,8,02,A0,02,00,00,00,00,80,
2080821,000003C0,false,Tx,0,8,00,00,02,00,00,00,00,00,
18445127489180525739,000001A0,false,Rx,0,8,36,09,71,F2,3F,00,00,00,
18445127489180525952,000001AC,false,Rx,0,8,6F,09,FF,F3,BF,FF,19,03,
2109834,000003C0,false,Tx,0,8,00,00,02,00,00,00,00,00,
18445127489180545663,000001A0,false,Rx,0,8,14,0A,71,F2,3F,00,00,00,
18445127489180545919,000001AC,false,Rx,0,8,43,0A,FF,F3,BF,FF,19,03,
2118852,000003C0,false,Tx,0,8,00,00,02,00,00,00,00,00,
2128810,000003C0,false,Tx,0,8,00,00,02,00,00,00,00,00,
18445127489180565672,000001A0,false,Rx,0,8,71,0B,71,F2,3F,00,00,00,
18445127489180565885,000001AC,false,Rx,0,8,EB,0B,FF,F3,BF,FF,19,03,
2138830,000003C0,false,Tx,0,8,00,00,02,00,00,00,00,00,
2148858,000003C0,false,Tx,0,8,00,00,02,00,00,00,00,00,
18445127489180585681,000001A0,false,Rx,0,8,AB,0C,71,F2,3F,00,00,00,
18445127489180585895,000001AC,false,Rx,0,8,AD,0C,FF,F3,BF,FF,19,03,
18445127489180586151,000002C0,false,Rx,0,8,02,0F,00,37,E0,3F,02,00,
2158812,000003C0,false,Tx,0,8,00,00,02,00,00,00,00,00,
18445127489180595707,1B000085,true,Rx,0,8,85,40,04,01,00,00,00,00,
2168838,000003C0,false,Tx,0,8,00,00,02,00,00,00,00,00,
18445127489180605648,000001A0,false,Rx,0,8,E9,0D,71,F2,3F,00,00,00,
18445127489180605904,000001AC,false,Rx,0,8,95,0D,FF,F3,BF,FF,19,03,
2178833,000003C0,false,Tx,0,8,00,00,02,00,00,00,00,00,
2188831,000003C0,false,Tx,0,8,00,00,02,00,00,00,00,00,
18445127489180625658,000001A0,false,Rx,0,8,90,0E,71,F2,3F,00,00,00,
18445127489180625914,000001AC,false,Rx,0,8,F2,0E,FF,F3,BF,FF,19,03,
2198841,000003C0,false,Tx,0,8,00,00,02,00,00,00,00,00,
2208830,000003C0,false,Tx,0,8,00,00,02,00,00,00,00,00,
18445127489180645667,000001A0,false,Rx,0,8,83,0F,71,F2,3F,00,00,00,
18445127489180645880,000001AC,false,Rx,0,8,B0,0F,FF,F3,BF,FF,19,03,
2218831,000003C0,false,Tx,0,8,00,00,02,00,00,00,00,00,
2228834,000003C0,false,Tx,0,8,00,00,02,00,00,00,00,00,
18445127489180665676,000001A0,false,Rx,0,8,74,00,71,F2,3F,00,00,00,
18445127489180665890,000001AC,false,Rx,0,8,13,00,FF,F3,BF,FF,19,03,
18445127489180666146,000002C0,false,Rx,0,8,9A,00,00,37,E0,3F,02,00,
2238934,000003C0,false,Tx,0,8,00,00,02,00,00,00,00,00,
2248846,000003C0,false,Tx,0,8,00,00,02,00,00,00,00,00,
18445127489180685643,000001A0,false,Rx,0,8,C3,01,71,F2,3F,00,00,00,
18445127489180685899,000001AC,false,Rx,0,8,DD,01,FF,F3,BF,FF,19,03,
2258850,000003C0,false,Tx,0,8,00,00,02,00,00,00,00,00,
2268838,000003C0,false,Tx,0,8,00,00,02,00,00,00,00,00,
18445127489180705653,000001A0,false,Rx,0,8,B2,02,71,F2,3F,00,00,00,
18445127489180705909,000001AC,false,Rx,0,8,27,02,FF,F3,BF,FF,19,03,
2278845,000003C0,false,Tx,0,8,00,00,02,00,00,00,00,00,
2288825,000003C0,false,Tx,0,8,00,00,02,00,00,00,00,00,
18445127489180725662,000001A0,false,Rx,0,8,C2,03,71,F2,3F,00,00,00,
18445127489180725875,000001AC,false,Rx,0,8,ED,03,FF,F3,BF,FF,19,03,
2298842,000003C0,false,Tx,0,8,00,00,02,00,00,00,00,00,
2308829,000003C0,false,Tx,0,8,00,00,02,00,00,00,00,00,
18445127489180745629,000001A0,false,Rx,0,8,CE,04,71,F2,3F,00,00,00,
18445127489180745885,000001AC,false,Rx,0,8,A8,04,FF,F3,BF,FF,19,03,
18445127489180746141,000002C0,false,Rx,0,8,42,01,00,37,E0,3F,02,00,
2318806,000003C0,false,Tx,0,8,00,00,02,00,00,00,00,00,
2328848,000003C0,false,Tx,0,8,00,00,02,00,00,00,00,00,
18445127489180765681,000001A0,false,Rx,0,8,FB,05,71,F2,3F,00,00,00,
18445127489180765937,000001AC,false,Rx,0,8,09,05,FF,F3,BF,FF,19,03,
2338832,000003C0,false,Tx,0,8,00,00,02,00,00,00,00,00,
2348887,000003C0,false,Tx,0,8,00,00,02,00,00,00,00,00,
18445127489180785648,000001A0,false,Rx,0,8,7B,16,71,F2,3F,00,00,00,
18445127489180785861,000001AC,false,Rx,0,8,DE,06,FF,F3,BF,FF,19,03,
18445127489180795716,1B000085,true,Rx,0,8,85,40,04,01,00,00,00,00,
18445127489180805657,000001A0,false,Rx,0,8,F8,37,71,F2,3F,00,00,00,
18445127489180805870,000001AC,false,Rx,0,8,41,07,FF,F3,BF,FF,19,03,
2374746,000003C0,false,Tx,0,8,00,00,02,00,00,00,00,00,
2383840,000003C0,false,Tx,0,8,00,00,02,00,00,00,00,00,
18445127489180825666,000001A0,false,Rx,0,8,BF,78,71,F2,3F,00,00,00,
18445127489180825922,000001AC,false,Rx,0,8,AE,08,FF,F3,BF,FF,19,03,
18445127489180826178,000002C0,false,Rx,0,8,BD,02,00,37,E0,3F,02,00,
2393844,000003C0,false,Tx,0,8,00,00,02,00,00,00,00,00,
2403895,000003C0,false,Tx,0,8,00,00,02,00,00,00,00,00,
18445127489180845633,000001A0,false,Rx,0,8,08,E9,71,F2,3F,00,00,00,
18445127489180845889,000001AC,false,Rx,0,8,6F,09,FF,F3,BF,FF,19,03,
2413864,000003C0,false,Tx,0,8,00,00,02,00,00,00,00,00,
2423878,000003C0,false,Tx,0,8,00,00,02,00,00,00,00,00,
18445127489180865643,000001A0,false,Rx,0,8,9A,6A,72,F2,3F,00,00,00,
18445127489180865856,000001AC,false,Rx,0,8,43,0A,FF,F3,BF,FF,19,03,
2433837,000003C0,false,Tx,0,8,00,00,02,00,00,00,00,00,
2443847,000003C0,false,Tx,0,8,00,00,02,00,00,00,00,00,
18445127489180885652,000001A0,false,Rx,0,8,B6,0B,73,F2,3F,00,00,00,
18445127489180885908,000001AC,false,Rx,0,8,EB,0B,FF,F3,BF,FF,19,03,
2453825,000003C0,false,Tx,0,8,00,00,02,00,00,00,00,00,
2463944,000003C0,false,Tx,0,8,00,00,02,00,00,00,00,00,
18445127489180905619,000001A0,false,Rx,0,8,39,CC,73,F2,3F,00,00,00,
18445127489180905875,000001AC,false,Rx,0,8,AD,0C,FF,F3,BF,FF,19,03,
18445127489180906088,000002C0,false,Rx,0,8,05,03,00,37,E0,3F,02,00,
2473945,000003C0,false,Tx,0,8,00,00,02,00,00,00,00,00,
2483903,000003C0,false,Tx,0,8,00,00,02,00,00,00,00,00,
18445127489180925628,000001A0,false,Rx,0,8,3F,8D,74,F2,3F,00,00,00,
18445127489180925841,000001AC,false,Rx,0,8,95,0D,FF,F3,BF,FF,19,03,
2493923,000003C0,false,Tx,0,8,00,00,02,00,00,00,00,00,
2503906,000003C0,false,Tx,0,8,00,00,02,00,00,00,00,00,
18445127489180945595,000001A0,false,Rx,0,8,45,5E,75,F2,3F,00,00,00,
18445127489180945851,000001AC,false,Rx,0,8,F2,0E,FF,F3,BF,FF,19,03,
2513933,000003C0,false,Tx,0,8,00,00,02,00,00,00,00,00,
2523956,000003C0,false,Tx,0,8,00,00,02,00,00,00,00,00,
18445127489180965604,000001A0,false,Rx,0,8,D8,3F,76,F2,3F,00,00,00,
18445127489180965860,000001AC,false,Rx,0,8,B0,0F,FF,F3,BF,FF,19,03,
2533908,000003C0,false,Tx,0,8,00,00,02,00,00,00,00,00,
2543984,000003C0,false,Tx,0,8,00,00,02,00,00,00,00,00,
18445127489180985614,000001A0,false,Rx,0,8,B0,10,77,F2,3F,00,00,00,
18445127489180985827,000001AC,false,Rx,0,8,13,00,FF,F3,BF,FF,19,03,
18445127489180986083,000002C0,false,Rx,0,8,9C,04,00,37,E0,3F,02,00,
2554023,000003C0,false,Tx,0,8,00,00,02,00,00,00,00,00,
18445127489180995682,1B000085,true,Rx,0,8,85,40,04,01,00,00,00,00,
2563930,000003C0,false,Tx,0,8,00,00,02,00,00,00,00,00,
18445127489181005623,000001A0,false,Rx,0,8,39,F1,77,F2,3F,00,00,00,
18445127489181005836,000001AC,false,Rx,0,8,DD,01,FF,F3,BF,FF,19,03,
18445127489181006135,17F00085,true,Rx,0,8,20,85,00,00,00,00,01,80,
18445127489181006434,1A5554A7,true,Rx,0,8,02,A0,02,00,00,00,00,80,
2573988,000003C0,false,Tx,0,8,00,00,02,00,00,00,00,00,
2584006,000003C0,false,Tx,0,8,00,00,02,00,00,00,00,00,
18445127489181025590,000001A0,false,Rx,0,8,DC,D2,78,F2,3F,00,00,00,
18445127489181025846,000001AC,false,Rx,0,8,27,02,FF,F3,BF,FF,19,03,
2593997,000003C0,false,Tx,0,8,00,00,02,00,00,00,00,00,
2603985,000003C0,false,Tx,0,8,00,00,02,00,00,00,00,00,
18445127489181045599,000001A0,false,Rx,0,8,47,A3,79,F2,3F,00,00,00,
18445127489181045855,000001AC,false,Rx,0,8,ED,03,FF,F3,BF,FF,19,03,
2614102,000003C0,false,Tx,0,8,00,00,02,00,00,00,00,00,
18445127489181065609,000001A0,false,Rx,0,8,B1,94,7A,F2,3F,00,00,00,
18445127489181065822,000001AC,false,Rx,0,8,A8,04,FF,F3,BF,FF,19,03,
18445127489181066078,000002C0,false,Rx,0,8,88,05,00,37,E0,3F,02,00,
18445127489181085618,000001A0,false,Rx,0,8,25,55,7B,F2,3F,00,00,00,
18445127489181085831,000001AC,false,Rx,0,8,09,05,FF,F3,BF,FF,19,03,
2668141,000003C0,false,Tx,0,8,00,00,02,00,00,00,00,00,
18445127489181105542,000001A0,false,Rx,0,8,39,B6,7B,F2,3F,00,00,00,
18445127489181105798,000001AC,false,Rx,0,8,DE,06,FF,F3,BF,FF,19,03,
2678000,000003C0,false,Tx,0,8,00,00,02,00,00,00,00,00,
2687974,000003C0,false,Tx,0,8,00,00,02,00,00,00,00,00,
18445127489181125594,000001A0,false,Rx,0,8,73,A7,7B,F2,3F,00,00,00,
18445127489181125850,000001AC,false,Rx,0,8,41,07,FF,F3,BF,FF,19,03,
2697961,000003C0,false,Tx,0,8,00,00,02,00,00,00,00,00,
2707954,000003C0,false,Tx,0,8,00,00,02,00,00,00,00,00,
18445127489181145604,000001A0,false,Rx,0,8,15,78,7B,F2,3F,00,00,00,
18445127489181145817,000001AC,false,Rx,0,8,AE,08,FF,F3,BF,FF,19,03,
18445127489181146073,000002C0,false,Rx,0,8,75,06,00,37,E0,3F,02,00,
2717978,000003C0,false,Tx,0,8,00,00,02,00,00,00,00,00,
2728004,000003C0,false,Tx,0,8,00,00,02,00,00,00,00,00,
18445127489181165571,000001A0,false,Rx,0,8,55,39,7B,F2,3F,00,00,00,
18445127489181165826,000001AC,false,Rx,0,8,6F,09,FF,F3,BF,FF,19,03,
18445127489181166082,1A555510,true,Rx,0,8,81,32,38,4D,20,47,00,00,
2738005,000003C0,false,Tx,0,8,00,00,02,00,00,00,00,00,
2748006,000003C0,false,Tx,0,8,00,00,02,00,00,00,00,00,
18445127489181185580,000001A0,false,Rx,0,8,D6,FA,7A,F2,3F,00,00,00,
18445127489181185836,000001AC,false,Rx,0,8,43,0A,FF,F3,BF,FF,19,03,
2757997,000003C0,false,Tx,0,8,00,00,02,00,00,00,00,00,
18445127489181195649,1B000085,true,Rx,0,8,85,40,04,01,00,00,00,00,
2767996,000003C0,false,Tx,0,8,00,00,02,00,00,00,00,00,
18445127489181205589,000001A0,false,Rx,0,8,D8,DB,7A,F2,3F,00,00,00,
18445127489181205803,000001AC,false,Rx,0,8,EB,0B,FF,F3,BF,FF,19,03,
2777995,000003C0,false,Tx,0,8,00,00,02,00,00,00,00,00,
2787995,000003C0,false,Tx,0,8,00,00,02,00,00,00,00,00,
18445127489181225599,000001A0,false,Rx,0,8,1D,AC,7A,F2,3F,00,00,00,
18445127489181225812,000001AC,false,Rx,0,8,AD,0C,FF,F3,BF,FF,19,03,
18445127489181226068,000002C0,false,Rx,0,8,D5,07,00,37,E0,3F,02,00,
2797998,000003C0,false,Tx,0,8,00,00,02,00,00,00,00,00,
2808009,000003C0,false,Tx,0,8,00,00,02,00,00,00,00,00,
18445127489181245608,000001A0,false,Rx,0,8,A8,7D,7A,F2,3F,00,00,00,
18445127489181245821,000001AC,false,Rx,0,8,95,0D,FF,F3,BF,FF,19,03,
2818061,000003C0,false,Tx,0,8,00,00,02,00,00,00,00,00,
2828081,000003C0,false,Tx,0,8,00,00,02,00,00,00,00,00,
18445127489181265575,000001A0,false,Rx,0,8,18,4E,7A,F2,3F,00,00,00,
18445127489181265831,000001AC,false,Rx,0,8,F2,0E,FF,F3,BF,FF,19,03,
2838003,000003C0,false,Tx,0,8,00,00,02,00,00,00,00,00,
2847983,000003C0,false,Tx,0,8,00,00,02,00,00,00,00,00,
18445127489181285584,000001A0,false,Rx,0,8,DD,0F,7A,F2,3F,00,00,00,
18445127489181285798,000001AC,false,Rx,0,8,B0,0F,FF,F3,BF,FF,19,03,
2858000,000003C0,false,Tx,0,8,00,00,02,00,00,00,00,00,
18445127489181305594,000001A0,false,Rx,0,8,EE,D0,79,F2,3F,00,00,00,
18445127489181305807,000001AC,false,Rx,0,8,13,00,FF,F3,BF,FF,19,03,
18445127489181306063,000002C0,false,Rx,0,8,84,08,00,37,E0,3F,02,00,
18445127489181325561,000001A0,false,Rx,0,8,46,A1,79,F2,3F,00,00,00,
18445127489181325816,000001AC,false,Rx,0,8,DD,01,FF,F3,BF,FF,19,03,
18445127489181345570,000001A0,false,Rx,0,8,5C,82,79,F2,3F,00,00,00,
18445127489181345783,000001AC,false,Rx,0,8,27,02,FF,F3,BF,FF,19,03,
2927083,000003C0,false,Tx,0,8,00,00,02,00,00,00,00,00,
18445127489181365579,000001A0,false,Rx,0,8,DB,53,79,F2,3F,00,00,00,
18445127489181365793,000001AC,false,Rx,0,8,ED,03,FF,F3,BF,FF,19,03,
2936967,000003C0,false,Tx,0,8,00,00,02,00,00,00,00,00,
2947054,000003C0,false,Tx,0,8,00,00,02,00,00,00,00,00,
18445127489181385546,000001A0,false,Rx,0,8,01,14,79,F2,3F,00,00,00,
18445127489181385802,000001AC,false,Rx,0,8,A8,04,FF,F3,BF,FF,19,03,
18445127489181386058,000002C0,false,Rx,0,8,71,09,00,37,E0,3F,02,00,
2957013,000003C0,false,Tx,0,8,00,00,02,00,00,00,00,00,
18445127489181395615,1B000085,true,Rx,0,8,85,40,04,01,00,00,00,00,
2966992,000003C0,false,Tx,0,8,00,00,02,00,00,00,00,00,
18445127489181405556,000001A0,false,Rx,0,8,FE,F5,78,F2,3F,00,00,00,
18445127489181405811,000001AC,false,Rx,0,8,09,05,FF,F3,BF,FF,19,03,
2976992,000003C0,false,Tx,0,8,00,00,02,00,00,00,00,00,
2986997,000003C0,false,Tx,0,8,00,00,02,00,00,00,00,00,
18445127489181425595,000001A0,false,Rx,0,8,B7,D6,78,F2,3F,00,00,00,
18445127489181425851,000001AC,false,Rx,0,8,DE,06,FF,F3,BF,FF,19,03,
2997006,000003C0,false,Tx,0,8,00,00,02,00,00,00,00,00,
3007005,000003C0,false,Tx,0,8,00,00,02,00,00,00,00,00,
18445127489181445562,000001A0,false,Rx,0,8,89,97,78,F2,3F,00,00,00,
18445127489181445818,000001AC,false,Rx,0,8,41,07,FF,F3,BF,FF,19,03,
3017076,000003C0,false,Tx,0,8,00,00,02,00,00,00,00,00,
3027006,000003C0,false,Tx,0,8,00,00,02,00,00,00,00,00,
18445127489181465571,000001A0,false,Rx,0,8,26,78,78,F2,3F,00,00,00,
18445127489181465827,000001AC,false,Rx,0,8,AE,08,FF,F3,BF,FF,19,03,
18445127489181466040,000002C0,false,Rx,0,8,C5,0A,00,37,E0,3F,02,00,
3037018,000003C0,false,Tx,0,8,00,00,02,00,00,00,00,00,
3047003,000003C0,false,Tx,0,8,00,00,02,00,00,00,00,00,
18445127489181485581,000001A0,false,Rx,0,8,DB,59,78,F2,3F,00,00,00,
18445127489181485836,000001AC,false,Rx,0,8,6F,09,FF,F3,BF,FF,19,03,
3057008,000003C0,false,Tx,0,8,00,00,02,00,00,00,00,00,
3067007,000003C0,false,Tx,0,8,00,00,02,00,00,00,00,00,
18445127489181505590,000001A0,false,Rx,0,8,2F,1A,78,F2,3F,00,00,00,
18445127489181505803,000001AC,false,Rx,0,8,43,0A,FF,F3,BF,FF,19,03,
18445127489181506102,17F00085,true,Rx,0,8,20,85,00,00,00,00,01,80,
18445127489181506401,1A5554A7,true,Rx,0,8,02,A0,02,00,00,00,00,80,
3077016,000003C0,false,Tx,0,8,00,00,02,00,00,00,00,00,
3086994,000003C0,false,Tx,0,8,00,00,02,00,00,00,00,00,
18445127489181525557,000001A0,false,Rx,0,8,8B,FB,77,F2,3F,00,00,00,
18445127489181525813,000001AC,false,Rx,0,8,EB,0B,FF,F3,BF,FF,19,03,
3097113,000003C0,false,Tx,0,8,00,00,02,00,00,00,00,00,
3107013,000003C0,false,Tx,0,8,00,00,02,00,00,00,00,00,
18445127489181545566,000001A0,false,Rx,0,8,3A,DC,77,F2,3F,00,00,00,
18445127489181545822,000001AC,false,Rx,0,8,AD,0C,FF,F3,BF,FF,19,03,
18445127489181546078,000002C0,false,Rx,0,8,80,0B,00,37,E0,3F,02,00,
3117028,000003C0,false,Tx,0,8,00,00,02,00,00,00,00,00,
3127012,000003C0,false,Tx,0,8,00,00,02,00,00,00,00,00,
18445127489181565576,000001A0,false,Rx,0,8,67,AD,77,F2,3F,00,00,00,
18445127489181565789,000001AC,false,Rx,0,8,95,0D,FF,F3,BF,FF,19,03,
18445127489181585585,000001A0,false,Rx,0,8,E9,7E,77,F2,3F,00,00,00,
18445127489181585798,000001AC,false,Rx,0,8,F2,0E,FF,F3,BF,FF,19,03,
18445127489181595568,1B000085,true,Rx,0,8,85,40,04,01,00,00,00,00,
18445127489181605594,000001A0,false,Rx,0,8,58,6F,77,F2,3F,00,00,00,
18445127489181605808,000001AC,false,Rx,0,8,B0,0F,FF,F3,BF,FF,19,03,
18445127489181625561,000001A0,false,Rx,0,8,DB,30,77,F2,3F,00,00,00,
18445127489181625817,000001AC,false,Rx,0,8,13,00,FF,F3,BF,FF,19,03,
18445127489181626030,000002C0,false,Rx,0,8,D8,0C,00,37,E0,3F,02,00,
3196842,000003C0,false,Tx,0,8,00,00,02,00,00,00,00,00,
3206118,000003C0,false,Tx,0,8,00,00,02,00,00,00,00,00,
18445127489181645571,000001A0,false,Rx,0,8,A5,01,77,F2,3F,00,00,00,
18445127489181645784,000001AC,false,Rx,0,8,DD,01,FF,F3,BF,FF,19,03,
3216008,000003C0,false,Tx,0,8,00,00,02,00,00,00,00,00,
3226036,000003C0,false,Tx,0,8,00,00,02,00,00,00,00,00,
18445127489181665580,000001A0,false,Rx,0,8,1E,E2,76,F2,3F,00,00,00,
18445127489181665793,000001AC,false,Rx,0,8,27,02,FF,F3,BF,FF,19,03,
3236024,000003C0,false,Tx,0,8,00,00,02,00,00,00,00,00,
3246013,000003C0,false,Tx,0,8,00,00,02,00,00,00,00,00,
18445127489181685547,000001A0,false,Rx,0,8,05,C3,76,F2,3F,00,00,00,
18445127489181685803,000001AC,false,Rx,0,8,ED,03,FF,F3,BF,FF,19,03,
3255969,000003C0,false,Tx,0,8,00,00,02,00,00,00,00,00,
3266084,000003C0,false,Tx,0,8,00,00,02,00,00,00,00,00,
18445127489181705556,000001A0,false,Rx,0,8,B4,A4,76,F2,3F,00,00,00,
18445127489181705769,000001AC,false,Rx,0,8,A8,04,FF,F3,BF,FF,19,03,
18445127489181706025,000002C0,false,Rx,0,8,B0,0D,00,37,E0,3F,02,00,
3276007,000003C0,false,Tx,0,8,00,00,02,00,00,00,00,00,
3286022,000003C0,false,Tx,0,8,00,00,02,00,00,00,00,00,
18445127489181725566,000001A0,false,Rx,0,8,EA,85,76,F2,3F,00,00,00,
18445127489181725779,000001AC,false,Rx,0,8,09,05,FF,F3,BF,FF,19,03,
3296016,000003C0,false,Tx,0,8,00,00,02,00,00,00,00,00,
3305967,000003C0,false,Tx,0,8,00,00,02,00,00,00,00,00,
18445127489181745532,000001A0,false,Rx,0,8,F6,66,76,F2,3F,00,00,00,
18445127489181745788,000001AC,false,Rx,0,8,DE,06,FF,F3,BF,FF,19,03,
3316034,000003C0,false,Tx,0,8,00,00,02,00,00,00,00,00,
3326038,000003C0,false,Tx,0,8,00,00,02,00,00,00,00,00,
18445127489181765542,000001A0,false,Rx,0,8,75,47,76,F2,3F,00,00,00,
18445127489181765798,000001AC,false,Rx,0,8,41,07,FF,F3,BF,FF,19,03,
3336021,000003C0,false,Tx,0,8,00,00,02,00,00,00,00,00,
3346017,000003C0,false,Tx,0,8,00,00,02,00,00,00,00,00,
18445127489181785551,000001A0,false,Rx,0,8,59,28,76,F2,3F,00,00,00,
18445127489181785807,000001AC,false,Rx,0,8,AE,08,FF,F3,BF,FF,19,03,
18445127489181786020,000002C0,false,Rx,0,8,2E,0E,00,37,E0,3F,02,00,
3355999,000003C0,false,Tx,0,8,00,00,02,00,00,00,00,00,
18445127489181795577,1B000085,true,Rx,0,8,85,40,04,01,00,00,00,00,
3366026,000003C0,false,Tx,0,8,00,00,02,00,00,00,00,00,
18445127489181805561,000001A0,false,Rx,0,8,A4,09,76,F2,3F,00,00,00,
18445127489181805774,000001AC,false,Rx,0,8,6F,09,FF,F3,BF,FF,19,03,
3376007,000003C0,false,Tx,0,8,00,00,02,00,00,00,00,00,
3386076,000003C0,false,Tx,0,8,00,00,02,00,00,00,00,00,
18445127489181825527,000001A0,false,Rx,0,8,42,DA,75,F2,3F,00,00,00,
18445127489181825783,000001AC,false,Rx,0,8,43,0A,FF,F3,BF,FF,19,03,
18445127489181845537,000001A0,false,Rx,0,8,85,CB,75,F2,3F,00,00,00,
18445127489181845750,000001AC,false,Rx,0,8,EB,0B,FF,F3,BF,FF,19,03,
18445127489181865546,000001A0,false,Rx,0,8,E2,AC,75,F2,3F,00,00,00,
18445127489181865759,000001AC,false,Rx,0,8,AD,0C,FF,F3,BF,FF,19,03,
18445127489181866015,000002C0,false,Rx,0,8,02,0F,00,37,E0,3F,02,00,
18445127489181885513,000001A0,false,Rx,0,8,CB,8D,75,F2,3F,00,00,00,
18445127489181885769,000001AC,false,Rx,0,8,95,0D,FF,F3,BF,FF,19,03,
18445127489181905522,000001A0,false,Rx,0,8,8C,6E,75,F2,3F,00,00,00,
18445127489181905778,000001AC,false,Rx,0,8,F2,0E,FF,F3,BF,FF,19,03,
3484533,000003C0,false,Tx,0,8,00,00,02,00,00,00,00,00,
18445127489181925489,000001A0,false,Rx,0,8,EB,3F,75,F2,3F,00,00,00,
18445127489181925745,000001AC,false,Rx,0,8,B0,0F,FF,F3,BF,FF,19,03,
3493954,000003C0,false,Tx,0,8,00,00,02,00,00,00,00,00,
3503988,000003C0,false,Tx,0,8,00,00,02,00,00,00,00,00,
18445127489181945541,000001A0,false,Rx,0,8,77,10,75,F2,3F,00,00,00,
18445127489181945754,000001AC,false,Rx,0,8,13,00,FF,F3,BF,FF,19,03,
18445127489181946010,000002C0,false,Rx,0,8,9A,00,00,37,E0,3F,02,00,
3514026,000003C0,false,Tx,0,8,00,00,02,00,00,00,00,00,
3523957,000003C0,false,Tx,0,8,00,00,02,00,00,00,00,00,
18445127489181965551,000001A0,false,Rx,0,8,0A,F1,74,F2,3F,00,00,00,
18445127489181965764,000001AC,false,Rx,0,8,DD,01,FF,F3,BF,FF,19,03,
3533969,000003C0,false,Tx,0,8,00,00,02,00,00,00,00,00,
3544011,000003C0,false,Tx,0,8,00,00,02,00,00,00,00,00,
18445127489181985517,000001A0,false,Rx,0,8,D9,E2,74,F2,3F,00,00,00,
18445127489181985773,000001AC,false,Rx,0,8,27,02,FF,F3,BF,FF,19,03,
3553988,000003C0,false,Tx,0,8,00,00,02,00,00,00,00,00,
18445127489181995629,1B000085,true,Rx,0,8,85,40,04,01,00,00,00,00,
3563999,000003C0,false,Tx,0,8,00,00,02,00,00,00,00,00,
18445127489182005527,000001A0,false,Rx,0,8,60,D3,74,F2,3F,00,00,00,
18445127489182005740,000001AC,false,Rx,0,8,ED,03,FF,F3,BF,FF,19,03,
18445127489182006039,17F00085,true,Rx,0,8,20,85,00,00,00,00,01,80,
18445127489182006337,1A5554A7,true,Rx,0,8,02,A0,02,00,00,00,00,80,
3573972,000003C0,false,Tx,0,8,00,00,02,00,00,00,00,00,
3584009,000003C0,false,Tx,0,8,00,00,02,00,00,00,00,00,
18445127489182025579,000001A0,false,Rx,0,8,07,F4,74,F2,3F,00,00,00,
18445127489182025792,000001AC,false,Rx,0,8,A8,04,FF,F3,BF,FF,19,03,
18445127489182026048,000002C0,false,Rx,0,8,42,01,00,37,E0,3F,02,00,
3593971,000003C0,false,Tx,0,8,00,00,02,00,00,00,00,00,
3603993,000003C0,false,Tx,0,8,00,00,02,00,00,00,00,00,
18445127489182045503,000001A0,false,Rx,0,8,E7,65,75,F2,3F,00,00,00,
18445127489182045759,000001AC,false,Rx,0,8,09,05,FF,F3,BF,FF,19,03,
3613977,000003C0,false,Tx,0,8,00,00,02,00,00,00,00,00,
3623998,000003C0,false,Tx,0,8,00,00,02,00,00,00,00,00,
18445127489182065512,000001A0,false,Rx,0,8,20,26,76,F2,3F,00,00,00,
18445127489182065726,000001AC,false,Rx,0,8,DE,06,FF,F3,BF,FF,19,03,
3633972,000003C0,false,Tx,0,8,00,00,02,00,00,00,00,00,
3644018,000003C0,false,Tx,0,8,00,00,02,00,00,00,00,00,
18445127489182085522,000001A0,false,Rx,0,8,81,47,77,F2,3F,00,00,00,
18445127489182085735,000001AC,false,Rx,0,8,41,07,FF,F3,BF,FF,19,03,
18445127489182105488,000001A0,false,Rx,0,8,D1,A8,78,F2,3F,00,00,00,
18445127489182105744,000001AC,false,Rx,0,8,AE,08,FF,F3,BF,FF,19,03,
18445127489182106000,000002C0,false,Rx,0,8,BD,02,00,37,E0,3F,02,00,
18445127489182125498,000001A0,false,Rx,0,8,CA,19,7A,F2,3F,00,00,00,
18445127489182125754,000001AC,false,Rx,0,8,6F,09,FF,F3,BF,FF,19,03,
18445127489182126010,1A555510,true,Rx,0,8,82,30,35,32,33,AE,00,00,
3709137,000003C0,false,Tx,0,8,00,00,02,00,00,00,00,00,
18445127489182145507,000001A0,false,Rx,0,8,F4,BA,7B,F2,3F,00,00,00,
18445127489182145763,000001AC,false,Rx,0,8,43,0A,FF,F3,BF,FF,19,03,
3719099,000003C0,false,Tx,0,8,00,00,02,00,00,00,00,00,
3729016,000003C0,false,Tx,0,8,00,00,02,00,00,00,00,00,
18445127489182165517,000001A0,false,Rx,0,8,BD,0B,7D,F2,3F,00,00,00,
18445127489182165730,000001AC,false,Rx,0,8,EB,0B,FF,F3,BF,FF,19,03,
3739063,000003C0,false,Tx,0,8,00,00,02,00,00,00,00,00,
3749103,000003C0,false,Tx,0,8,00,00,02,00,00,00,00,00,
18445127489182185483,000001A0,false,Rx,0,8,8F,AC,7D,F2,3F,00,00,00,
18445127489182185739,000001AC,false,Rx,0,8,AD,0C,FF,F3,BF,FF,19,03,
18445127489182185995,000002C0,false,Rx,0,8,05,03,00,37,E0,3F,02,00,
3759105,000003C0,false,Tx,0,8,00,00,02,00,00,00,00,00,
18445127489182195552,1B000085,true,Rx,0,8,85,40,04,01,00,00,00,00,
3768999,000003C0,false,Tx,0,8,00,00,02,00,00,00,00,00,
18445127489182205493,000001A0,false,Rx,0,8,A6,8D,7D,F2,3F,00,00,00,
18445127489182205749,000001AC,false,Rx,0,8,95,0D,FF,F3,BF,FF,19,03,
3778960,000003C0,false,Tx,0,8,00,00,02,00,00,00,00,00,
3789078,000003C0,false,Tx,0,8,00,00,02,00,00,00,00,00,
18445127489182225502,000001A0,false,Rx,0,8,37,2E,7D,F2,3F,00,00,00,
18445127489182225716,000001AC,false,Rx,0,8,F2,0E,FF,F3,BF,FF,19,03,
3799103,000003C0,false,Tx,0,8,00,00,02,00,00,00,00,00,
3809032,000003C0,false,Tx,0,8,00,00,02,00,00,00,00,00,
18445127489182245469,000001A0,false,Rx,0,8,EE,CF,7C,F2,3F,00,00,00,
18445127489182245725,000001AC,false,Rx,0,8,B0,0F,FF,F3,BF,FF,19,03,
3819103,000003C0,false,Tx,0,8,00,00,02,00,00,00,00,00,
3829113,000003C0,false,Tx,0,8,00,00,02,00,00,00,00,00,
18445127489182265478,000001A0,false,Rx,0,8,CF,80,7C,F2,3F,00,00,00,
18445127489182265734,000001AC,false,Rx,0,8,13,00,FF,F3,BF,FF,19,03,
18445127489182265990,000002C0,false,Rx,0,8,9C,04,00,37,E0,3F,02,00,
3839034,000003C0,false,Tx,0,8,00,00,02,00,00,00,00,00,
3849080,000003C0,false,Tx,0,8,00,00,02,00,00,00,00,00,
18445127489182285488,000001A0,false,Rx,0,8,2D,41,7C,F2,3F,00,00,00,
18445127489182285744,000001AC,false,Rx,0,8,DD,01,FF,F3,BF,FF,19,03,
3859096,000003C0,false,Tx,0,8,00,00,02,00,00,00,00,00,
3869084,000003C0,false,Tx,0,8,00,00,02,00,00,00,00,00,
18445127489182305497,000001A0,false,Rx,0,8,8A,02,7C,F2,3F,00,00,00,
18445127489182305711,000001AC,false,Rx,0,8,27,02,FF,F3,BF,FF,19,03,
3879096,000003C0,false,Tx,0,8,00,00,02,00,00,00,00,00,
3889098,000003C0,false,Tx,0,8,00,00,02,00,00,00,00,00,
18445127489182325507,000001A0,false,Rx,0,8,9F,D3,7B,F2,3F,00,00,00,
18445127489182325720,000001AC,false,Rx,0,8,ED,03,FF,F3,BF,FF,19,03,
3899039,000003C0,false,Tx,0,8,00,00,02,00,00,00,00,00,
3909351,000003C0,false,Tx,0,8,00,00,02,00,00,00,00,00,
18445127489182345473,000001A0,false,Rx,0,8,8C,A4,7B,F2,3F,00,00,00,
18445127489182345729,000001AC,false,Rx,0,8,A8,04,FF,F3,BF,FF,19,03,
18445127489182345943,000002C0,false,Rx,0,8,88,05,00,37,E0,3F,02,00,
18445127489182365483,000001A0,false,Rx,0,8,EC,65,7B,F2,3F,00,00,00,
18445127489182365739,000001AC,false,Rx,0,8,09,05,FF,F3,BF,FF,19,03,
18445127489182385492,000001A0,false,Rx,0,8,A5,46,7B,F2,3F,00,00,00,
18445127489182385706,000001AC,false,Rx,0,8,DE,06,FF,F3,BF,FF,19,03,
18445127489182395518,1B000085,true,Rx,0,8,85,40,04,01,00,00,00,00,
18445127489182405459,000001A0,false,Rx,0,8,39,17,7B,F2,3F,00,00,00,
18445127489182405715,000001AC,false,Rx,0,8,41,07,FF,F3,BF,FF,19,03,
3977954,000003C0,false,Tx,0,8,00,00,02,00,00,00,00,00,
3988052,000003C0,false,Tx,0,8,00,00,02,00,00,00,00,00,
18445127489182425466,000001A0,false,Rx,0,8,C0,E8,7A,F2,3F,00,00,00,
18445127489182425722,000001AC,false,Rx,0,8,AE,08,FF,F3,BF,FF,19,03,
18445127489182425936,000002C0,false,Rx,0,8,75,06,00,37,E0,3F,02,00,
3998026,000003C0,false,Tx,0,8,00,00,02,00,00,00,00,00,
4008049,000003C0,false,Tx,0,8,00,00,02,00,00,00,00,00,
18445127489182445476,000001A0,false,Rx,0,8,22,B9,7A,F2,3F,00,00,00,
18445127489182445689,000001AC,false,Rx,0,8,6F,09,FF,F3,BF,FF,19,03,
4018329,000003C0,false,Tx,0,8,00,00,02,00,00,00,00,00,
4028024,000003C0,false,Tx,0,8,00,00,02,00,00,00,00,00,
18445127489182465443,000001A0,false,Rx,0,8,55,7A,7A,F2,3F,00,00,00,
18445127489182465699,000001AC,false,Rx,0,8,43,0A,FF,F3,BF,FF,19,03,
4038024,000003C0,false,Tx,0,8,00,00,02,00,00,00,00,00,
4048043,000003C0,false,Tx,0,8,00,00,02,00,00,00,00,00,
18445127489182485452,000001A0,false,Rx,0,8,F9,4B,7A,F2,3F,00,00,00,
18445127489182485708,000001AC,false,Rx,0,8,EB,0B,FF,F3,BF,FF,19,03,
4058028,000003C0,false,Tx,0,8,00,00,02,00,00,00,00,00,
4068023,000003C0,false,Tx,0,8,00,00,02,00,00,00,00,00,
18445127489182505461,000001A0,false,Rx,0,8,F5,0C,7A,F2,3F,00,00,00,
18445127489182505717,000001AC,false,Rx,0,8,AD,0C,FF,F3,BF,FF,19,03,
18445127489182505931,000002C0,false,Rx,0,8,D5,07,00,37,E0,3F,02,00,
18445127489182506229,17F00085,true,Rx,0,8,20,85,00,00,00,00,01,80,
18445127489182506528,1A5554A7,true,Rx,0,8,02,A0,02,00,00,00,00,80,
4078027,000003C0,false,Tx,0,8,00,00,02,00,00,00,00,00,
4088019,000003C0,false,Tx,0,8,00,00,02,00,00,00,00,00,
18445127489182525471,000001A0,false,Rx,0,8,BA,ED,79,F2,3F,00,00,00,
18445127489182525684,000001AC,false,Rx,0,8,95,0D,FF,F3,BF,FF,19,03,
4098022,000003C0,false,Tx,0,8,00,00,02,00,00,00,00,00,
4108010,000003C0,false,Tx,0,8,00,00,02,00,00,00,00,00,
18445127489182545438,000001A0,false,Rx,0,8,B7,BE,79,F2,3F,00,00,00,
18445127489182545694,000001AC,false,Rx,0,8,F2,0E,FF,F3,BF,FF,19,03,
4118026,000003C0,false,Tx,0,8,00,00,02,00,00,00,00,00,
4128054,000003C0,false,Tx,0,8,00,00,02,00,00,00,00,00,
18445127489182565447,000001A0,false,Rx,0,8,6D,8F,79,F2,3F,00,00,00,
18445127489182565703,000001AC,false,Rx,0,8,B0,0F,FF,F3,BF,FF,19,03,
4138030,000003C0,false,Tx,0,8,00,00,02,00,00,00,00,00,
4148033,000003C0,false,Tx,0,8,00,00,02,00,00,00,00,00,
18445127489182585456,000001A0,false,Rx,0,8,A4,60,79,F2,3F,00,00,00,
18445127489182585670,000001AC,false,Rx,0,8,13,00,FF,F3,BF,FF,19,03,
18445127489182585926,000002C0,false,Rx,0,8,84,08,00,37,E0,3F,02,00,
4158061,000003C0,false,Tx,0,8,00,00,02,00,00,00,00,00,
18445127489182595568,1B000085,true,Rx,0,8,85,40,04,01,00,00,00,00,
4168090,000003C0,false,Tx,0,8,00,00,02,00,00,00,00,00,
18445127489182605466,000001A0,false,Rx,0,8,78,41,79,F2,3F,00,00,00,
18445127489182605679,000001AC,false,Rx,0,8,DD,01,FF,F3,BF,FF,19,03,
18445127489182625475,000001A0,false,Rx,0,8,DF,02,79,F2,3F,00,00,00,
18445127489182625689,000001AC,false,Rx,0,8,27,02,FF,F3,BF,FF,19,03,
18445127489182645442,000001A0,false,Rx,0,8,65,E3,78,F2,3F,00,00,00,
18445127489182645655,000001AC,false,Rx,0,8,ED,03,FF,F3,BF,FF,19,03,
18445127489182665451,000001A0,false,Rx,0,8,1D,B4,78,F2,3F,00,00,00,
18445127489182665665,000001AC,false,Rx,0,8,A8,04,FF,F3,BF,FF,19,03,
18445127489182665921,000002C0,false,Rx,0,8,71,09,00,37,E0,3F,02,00,
4251395,000003C0,false,Tx,0,8,00,00,02,00,00,00,00,00,
18445127489182685461,000001A0,false,Rx,0,8,7D,75,78,F2,3F,00,00,00,
18445127489182685674,000001AC,false,Rx,0,8,09,05,FF,F3,BF,FF,19,03,
4261049,000003C0,false,Tx,0,8,00,00,02,00,00,00,00,00,
4270952,000003C0,false,Tx,0,8,00,00,02,00,00,00,00,00,
18445127489182705470,000001A0,false,Rx,0,8,34,56,78,F2,3F,00,00,00,
18445127489182705684,000001AC,false,Rx,0,8,DE,06,FF,F3,BF,FF,19,03,
4280975,000003C0,false,Tx,0,8,00,00,02,00,00,00,00,00,
4291059,000003C0,false,Tx,0,8,00,00,02,00,00,00,00,00,
18445127489182725437,000001A0,false,Rx,0,8,61,37,78,F2,3F,00,00,00,
18445127489182725693,000001AC,false,Rx,0,8,41,07,FF,F3,BF,FF,19,03,
4300945,000003C0,false,Tx,0,8,00,00,02,00,00,00,00,00,
4311021,000003C0,false,Tx,0,8,00,00,02,00,00,00,00,00,
18445127489182745489,000001A0,false,Rx,0,8,5A,F8,77,F2,3F,00,00,00,
18445127489182745745,000001AC,false,Rx,0,8,AE,08,FF,F3,BF,FF,19,03,
18445127489182745958,000002C0,false,Rx,0,8,C5,0A,00,37,E0,3F,02,00,
4320993,000003C0,false,Tx,0,8,00,00,02,00,00,00,00,00,
4331118,000003C0,false,Tx,0,8,00,00,02,00,00,00,00,00,
18445127489182765627,000001A0,false,Rx,0,8,6E,E9,77,F2,3F,00,00,00,
18445127489182765840,000001AC,false,Rx,0,8,6F,09,FF,F3,BF,FF,19,03,
4341027,000003C0,false,Tx,0,8,00,00,02,00,00,00,00,00,
4351062,000003C0,false,Tx,0,8,00,00,02,00,00,00,00,00,
18445127489182785465,000001A0,false,Rx,0,8,27,CA,77,F2,3F,00,00,00,
18445127489182785721,000001AC,false,Rx,0,8,43,0A,FF,F3,BF,FF,19,03,
4361075,000003C0,false,Tx,0,8,00,00,02,00,00,00,00,00,
18445127489182795619,1B000085,true,Rx,0,8,85,40,04,01,00,00,00,00,
4371068,000003C0,false,Tx,0,8,00,00,02,00,00,00,00,00,
18445127489182805475,000001A0,false,Rx,0,8,36,9B,77,F2,3F,00,00,00,
18445127489182805731,000001AC,false,Rx,0,8,EB,0B,FF,F3,BF,FF,19,03,
4381063,000003C0,false,Tx,0,8,00,00,02,00,00,00,00,00,
4391058,000003C0,false,Tx,0,8,00,00,02,00,00,00,00,00,
18445127489182825484,000001A0,false,Rx,0,8,70,6C,77,F2,3F,00,00,00,
18445127489182825697,000001AC,false,Rx,0,8,AD,0C,FF,F3,BF,FF,19,03,
18445127489182825953,000002C0,false,Rx,0,8,80,0B,00,37,E0,3F,02,00,
4401053,000003C0,false,Tx,0,8,00,00,02,00,00,00,00,00,
4411046,000003C0,false,Tx,0,8,00,00,02,00,00,00,00,00,
18445127489182845536,000001A0,false,Rx,0,8,FB,5D,77,F2,3F,00,00,00,
18445127489182845792,000001AC,false,Rx,0,8,95,0D,FF,F3,BF,FF,19,03,
4421057,000003C0,false,Tx,0,8,00,00,02,00,00,00,00,00,
18445127489182865418,000001A0,false,Rx,0,8,9D,2E,77,F2,3F,00,00,00,
18445127489182865674,000001AC,false,Rx,0,8,F2,0E,FF,F3,BF,FF,19,03,
18445127489182885427,000001A0,false,Rx,0,8,8D,FF,76,F2,3F,00,00,00,
18445127489182885640,000001AC,false,Rx,0,8,B0,0F,FF,F3,BF,FF,19,03,
18445127489182905394,000001A0,false,Rx,0,8,B3,C0,76,F2,3F,00,00,00,
18445127489182905650,000001AC,false,Rx,0,8,13,00,FF,F3,BF,FF,19,03,
18445127489182905906,000002C0,false,Rx,0,8,D8,0C,00,37,E0,3F,02,00,
4488770,000003C0,false,Tx,0,8,00,00,02,00,00,00,00,00,
18445127489182925403,000001A0,false,Rx,0,8,1B,B1,76,F2,3F,00,00,00,
18445127489182925659,000001AC,false,Rx,0,8,DD,01,FF,F3,BF,FF,19,03,
4498048,000003C0,false,Tx,0,8,00,00,02,00,00,00,00,00,
4508026,000003C0,false,Tx,0,8,00,00,02,00,00,00,00,00,
18445127489182945370,000001A0,false,Rx,0,8,01,92,76,F2,3F,00,00,00,
18445127489182945626,000001AC,false,Rx,0,8,27,02,FF,F3,BF,FF,19,03,
4518004,000003C0,false,Tx,0,8,00,00,02,00,00,00,00,00,
4528130,000003C0,false,Tx,0,8,00,00,02,00,00,00,00,00,
18445127489182965379,000001A0,false,Rx,0,8,ED,63,76,F2,3F,00,00,00,
18445127489182965635,000001AC,false,Rx,0,8,ED,03,FF,F3,BF,FF,19,03,
4538050,000003C0,false,Tx,0,8,00,00,02,00,00,00,00,00,
4548047,000003C0,false,Tx,0,8,00,00,02,00,00,00,00,00,
18445127489182985431,000001A0,false,Rx,0,8,8A,44,76,F2,3F,00,00,00,
18445127489182985645,000001AC,false,Rx,0,8,A8,04,FF,F3,BF,FF,19,03,
18445127489182985901,000002C0,false,Rx,0,8,B0,0D,00,37,E0,3F,02,00,
4558073,000003C0,false,Tx,0,8,00,00,02,00,00,00,00,00,
18445127489182995457,1B000085,true,Rx,0,8,85,40,04,01,00,00,00,00,
4568124,000003C0,false,Tx,0,8,00,00,02,00,00,00,00,00,
18445127489183005398,000001A0,false,Rx,0,8,A0,35,76,F2,3F,00,00,00,
18445127489183005654,000001AC,false,Rx,0,8,09,05,FF,F3,BF,FF,19,03,
18445127489183005910,17F00085,true,Rx,0,8,20,85,00,00,00,00,01,80,
18445127489183006209,1A5554A7,true,Rx,0,8,02,A0,02,00,00,00,00,80,
4578051,000003C0,false,Tx,0,8,00,00,02,00,00,00,00,00,
4588047,000003C0,false,Tx,0,8,00,00,02,00,00,00,00,00,
18445127489183025408,000001A0,false,Rx,0,8,E4,F6,75,F2,3F,00,00,00,
18445127489183025621,000001AC,false,Rx,0,8,DE,06,FF,F3,BF,FF,19,03,
4598056,000003C0,false,Tx,0,8,00,00,02,00,00,00,00,00,
4608049,000003C0,false,Tx,0,8,00,00,02,00,00,00,00,00,
18445127489183045417,000001A0,false,Rx,0,8,C5,C7,75,F2,3F,00,00,00,
18445127489183045630,000001AC,false,Rx,0,8,41,07,FF,F3,BF,FF,19,03,
4618048,000003C0,false,Tx,0,8,00,00,02,00,00,00,00,00,
4628069,000003C0,false,Tx,0,8,00,00,02,00,00,00,00,00,
18445127489183065341,000001A0,false,Rx,0,8,20,98,75,F2,3F,00,00,00,
18445127489183065597,000001AC,false,Rx,0,8,AE,08,FF,F3,BF,FF,19,03,
18445127489183065853,000002C0,false,Rx,0,8,2E,0E,00,37,E0,3F,02,00,
4638053,000003C0,false,Tx,0,8,00,00,02,00,00,00,00,00,
4648134,000003C0,false,Tx,0,8,00,00,02,00,00,00,00,00,
18445127489183085393,000001A0,false,Rx,0,8,B6,99,75,F2,3F,00,00,00,
18445127489183085607,000001AC,false,Rx,0,8,6F,09,FF,F3,BF,FF,19,03,
18445127489183085905,1A555510,true,Rx,0,8,83,30,30,30,30,D8,00,00,
4658086,000003C0,false,Tx,0,8,00,00,02,00,00,00,00,00,
4668072,000003C0,false,Tx,0,8,00,00,02,00,00,00,00,00,
18445127489183105403,000001A0,false,Rx,0,8,E0,CA,75,F2,3F,00,00,00,
18445127489183105616,000001AC,false,Rx,0,8,43,0A,FF,F3,BF,FF,19,03,
4678069,000003C0,false,Tx,0,8,00,00,02,00,00,00,00,00,
4688047,000003C0,false,Tx,0,8,00,00,02,00,00,00,00,00,
18445127489183125369,000001A0,false,Rx,0,8,5E,6B,76,F2,3F,00,00,00,
18445127489183125625,000001AC,false,Rx,0,8,EB,0B,FF,F3,BF,FF,19,03,
18445127489183145379,000001A0,false,Rx,0,8,4E,8C,77,F2,3F,00,00,00,
18445127489183145635,000001AC,false,Rx,0,8,AD,0C,FF,F3,BF,FF,19,03,
18445127489183145848,000002C0,false,Rx,0,8,02,0F,00,37,E0,3F,02,00,
18445127489183165388,000001A0,false,Rx,0,8,EC,FD,78,F2,3F,00,00,00,
18445127489183165644,000001AC,false,Rx,0,8,95,0D,FF,F3,BF,FF,19,03,
18445127489183185398,000001A0,false,Rx,0,8,26,AE,7A,F2,3F,00,00,00,
18445127489183185611,000001AC,false,Rx,0,8,F2,0E,FF,F3,BF,FF,19,03,
4753821,000003C0,false,Tx,0,8,00,00,02,00,00,00,00,00,
4763238,000003C0,false,Tx,0,8,00,00,02,00,00,00,00,00,
18445127489183195424,1B000085,true,Rx,0,8,85,40,04,01,00,00,00,00,
4773148,000003C0,false,Tx,0,8,00,00,02,00,00,00,00,00,
18445127489183205364,000001A0,false,Rx,0,8,B5,FF,7B,F2,3F,00,00,00,
18445127489183205620,000001AC,false,Rx,0,8,B0,0F,FF,F3,BF,FF,19,03,
4783240,000003C0,false,Tx,0,8,00,00,02,00,00,00,00,00,
4793316,000003C0,false,Tx,0,8,00,00,02,00,00,00,00,00,
18445127489183225374,000001A0,false,Rx,0,8,06,B0,7C,F2,3F,00,00,00,
18445127489183225630,000001AC,false,Rx,0,8,13,00,FF,F3,BF,FF,19,03,
18445127489183225886,000002C0,false,Rx,0,8,9A,00,00,37,E0,3F,02,00,
4803072,000003C0,false,Tx,0,8,00,00,02,00,00,00,00,00,
4813094,000003C0,false,Tx,0,8,00,00,02,00,00,00,00,00,
18445127489183245383,000001A0,false,Rx,0,8,B1,B1,7C,F2,3F,00,00,00,
18445127489183245597,000001AC,false,Rx,0,8,DD,01,FF,F3,BF,FF,19,03,
4823082,000003C0,false,Tx,0,8,00,00,02,00,00,00,00,00,
4833293,000003C0,false,Tx,0,8,00,00,02,00,00,00,00,00,
18445127489183265350,000001A0,false,Rx,0,8,95,72,7C,F2,3F,00,00,00,
18445127489183265606,000001AC,false,Rx,0,8,27,02,FF,F3,BF,FF,19,03,
4843070,000003C0,false,Tx,0,8,00,00,02,00,00,00,00,00,
4853272,000003C0,false,Tx,0,8,00,00,02,00,00,00,00,00,
18445127489183285359,000001A0,false,Rx,0,8,F4,F3,7B,F2,3F,00,00,00,
18445127489183285615,000001AC,false,Rx,0,8,ED,03,FF,F3,BF,FF,19,03,
4863071,000003C0,false,Tx,0,8,00,00,02,00,00,00,00,00,
4873146,000003C0,false,Tx,0,8,00,00,02,00,00,00,00,00,
18445127489183305369,000001A0,false,Rx,0,8,2E,B4,7B,F2,3F,00,00,00,
18445127489183305582,000001AC,false,Rx,0,8,A8,04,FF,F3,BF,FF,19,03,
18445127489183305838,000002C0,false,Rx,0,8,42,01,00,37,E0,3F,02,00,
4883071,000003C0,false,Tx,0,8,00,00,02,00,00,00,00,00,
4893220,000003C0,false,Tx,0,8,00,00,02,00,00,00,00,00,
18445127489183325378,000001A0,false,Rx,0,8,4E,75,7B,F2,3F,00,00,00,
18445127489183325592,000001AC,false,Rx,0,8,09,05,FF,F3,BF,FF,19,03,
4903073,000003C0,false,Tx,0,8,00,00,02,00,00,00,00,00,
4913278,000003C0,false,Tx,0,8,00,00,02,00,00,00,00,00,
18445127489183345388,000001A0,false,Rx,0,8,A5,46,7B,F2,3F,00,00,00,
18445127489183345601,000001AC,false,Rx,0,8,DE,06,FF,F3,BF,FF,19,03,
4923075,000003C0,false,Tx,0,8,00,00,02,00,00,00,00,00,
4933041,000003C0,false,Tx,0,8,00,00,02,00,00,00,00,00,
18445127489183365354,000001A0,false,Rx,0,8,39,17,7B,F2,3F,00,00,00,
18445127489183365610,000001AC,false,Rx,0,8,41,07,FF,F3,BF,FF,19,03,
4943098,000003C0,false,Tx,0,8,00,00,02,00,00,00,00,00,
4953123,000003C0,false,Tx,0,8,00,00,02,00,00,00,00,00,
18445127489183385364,000001A0,false,Rx,0,8,C0,E8,7A,F2,3F,00,00,00,
18445127489183385577,000001AC,false,Rx,0,8,AE,08,FF,F3,BF,FF,19,03,
18445127489183385833,000002C0,false,Rx,0,8,BD,02,00,37,E0,3F,02,00,
18445127489183395390,1B000085,true,Rx,0,8,85,40,04,01,00,00,00,00,
18445127489183405373,000001A0,false,Rx,0,8,3D,C9,7A,F2,3F,00,00,00,
18445127489183405587,000001AC,false,Rx,0,8,6F,09,FF,F3,BF,FF,19,03,
18445127489183425370,000001A0,false,Rx,0,8,6B,9A,7A,F2,3F,00,00,00,
18445127489183425626,000001AC,false,Rx,0,8,43,0A,FF,F3,BF,FF,19,03,
18445127489183445379,000001A0,false,Rx,0,8,30,7B,7A,F2,3F,00,00,00,
18445127489183445635,000001AC,false,Rx,0,8,EB,0B,FF,F3,BF,FF,19,03,
5021127,000003C0,false,Tx,0,8,00,00,02,00,00,00,00,00,
5031201,000003C0,false,Tx,0,8,00,00,02,00,00,00,00,00,
18445127489183465559,000001A0,false,Rx,0,8,23,4C,7A,F2,3F,00,00,00,
18445127489183465815,000001AC,false,Rx,0,8,AD,0C,FF,F3,BF,FF,19,03,
18445127489183466029,000002C0,false,Rx,0,8,05,03,00,37,E0,3F,02,00,
5041081,000003C0,false,Tx,0,8,00,00,02,00,00,00,00,00,
5051064,000003C0,false,Tx,0,8,00,00,02,00,00,00,00,00,
18445127489183485398,000001A0,false,Rx,0,8,15,1D,7A,F2,3F,00,00,00,
18445127489183485612,000001AC,false,Rx,0,8,95,0D,FF,F3,BF,FF,19,03,
5061035,000003C0,false,Tx,0,8,00,00,02,00,00,00,00,00,
5071026,000003C0,false,Tx,0,8,00,00,02,00,00,00,00,00,
18445127489183505450,000001A0,false,Rx,0,8,C3,EE,79,F2,3F,00,00,00,
18445127489183505664,000001AC,false,Rx,0,8,F2,0E,FF,F3,BF,FF,19,03,
18445127489183505962,17F00085,true,Rx,0,8,20,85,00,00,00,00,01,80,
18445127489183506261,1A5554A7,true,Rx,0,8,02,A0,02,00,00,00,00,80,
5081032,000003C0,false,Tx,0,8,00,00,02,00,00,00,00,00,
5091013,000003C0,false,Tx,0,8,00,00,02,00,00,00,00,00,
18445127489183525417,000001A0,false,Rx,0,8,06,AF,79,F2,3F,00,00,00,
18445127489183525673,000001AC,false,Rx,0,8,B0,0F,FF,F3,BF,FF,19,03,
5101054,000003C0,false,Tx,0,8,00,00,02,00,00,00,00,00,
5111052,000003C0,false,Tx,0,8,00,00,02,00,00,00,00,00,
18445127489183545512,000001A0,false,Rx,0,8,06,70,79,F2,3F,00,00,00,
18445127489183545725,000001AC,false,Rx,0,8,13,00,FF,F3,BF,FF,19,03,
18445127489183545981,000002C0,false,Rx,0,8,9C,04,00,37,E0,3F,02,00,
5121032,000003C0,false,Tx,0,8,00,00,02,00,00,00,00,00,
5131042,000003C0,false,Tx,0,8,00,00,02,00,00,00,00,00,
18445127489183565479,000001A0,false,Rx,0,8,78,41,79,F2,3F,00,00,00,
18445127489183565734,000001AC,false,Rx,0,8,DD,01,FF,F3,BF,FF,19,03,
5141020,000003C0,false,Tx,0,8,00,00,02,00,00,00,00,00,
5151043,000003C0,false,Tx,0,8,00,00,02,00,00,00,00,00,
18445127489183585488,000001A0,false,Rx,0,8,7D,12,79,F2,3F,00,00,00,
18445127489183585744,000001AC,false,Rx,0,8,27,02,FF,F3,BF,FF,19,03,
5161055,000003C0,false,Tx,0,8,00,00,02,00,00,00,00,00,
18445127489183595557,1B000085,true,Rx,0,8,85,40,04,01,00,00,00,00,
5171046,000003C0,false,Tx,0,8,00,00,02,00,00,00,00,00,
18445127489183605455,000001A0,false,Rx,0,8,65,E3,78,F2,3F,00,00,00,
18445127489183605711,000001AC,false,Rx,0,8,ED,03,FF,F3,BF,FF,19,03,
5181020,000003C0,false,Tx,0,8,00,00,02,00,00,00,00,00,
5191017,000003C0,false,Tx,0,8,00,00,02,00,00,00,00,00,
18445127489183625421,000001A0,false,Rx,0,8,02,C4,78,F2,3F,00,00,00,
18445127489183625677,000001AC,false,Rx,0,8,A8,04,FF,F3,BF,FF,19,03,
18445127489183625933,000002C0,false,Rx,0,8,88,05,00,37,E0,3F,02,00,
5201052,000003C0,false,Tx,0,8,00,00,02,00,00,00,00,00,
18445127489183645346,000001A0,false,Rx,0,8,43,95,78,F2,3F,00,00,00,
18445127489183645602,000001AC,false,Rx,0,8,09,05,FF,F3,BF,FF,19,03,
18445127489183665355,000001A0,false,Rx,0,8,C3,86,78,F2,3F,00,00,00,
18445127489183665568,000001AC,false,Rx,0,8,DE,06,FF,F3,BF,FF,19,03,
18445127489183685364,000001A0,false,Rx,0,8,DC,57,78,F2,3F,00,00,00,
18445127489183685578,000001AC,false,Rx,0,8,41,07,FF,F3,BF,FF,19,03,
5265664,000003C0,false,Tx,0,8,00,00,02,00,00,00,00,00,
18445127489183705374,000001A0,false,Rx,0,8,52,28,78,F2,3F,00,00,00,
18445127489183705587,000001AC,false,Rx,0,8,AE,08,FF,F3,BF,FF,19,03,
18445127489183705843,000002C0,false,Rx,0,8,75,06,00,37,E0,3F,02,00,
5275209,000003C0,false,Tx,0,8,00,00,02,00,00,00,00,00,
5285079,000003C0,false,Tx,0,8,00,00,02,00,00,00,00,00,
18445127489183725341,000001A0,false,Rx,0,8,AF,09,78,F2,3F,00,00,00,
18445127489183725597,000001AC,false,Rx,0,8,6F,09,FF,F3,BF,FF,19,03,
5295063,000003C0,false,Tx,0,8,00,00,02,00,00,00,00,00,
5305074,000003C0,false,Tx,0,8,00,00,02,00,00,00,00,00,
18445127489183745350,000001A0,false,Rx,0,8,4C,EA,77,F2,3F,00,00,00,
18445127489183745563,000001AC,false,Rx,0,8,43,0A,FF,F3,BF,FF,19,03,
5315031,000003C0,false,Tx,0,8,00,00,02,00,00,00,00,00,
5325050,000003C0,false,Tx,0,8,00,00,02,00,00,00,00,00,
18445127489183765359,000001A0,false,Rx,0,8,5D,BB,77,F2,3F,00,00,00,
18445127489183765573,000001AC,false,Rx,0,8,EB,0B,FF,F3,BF,FF,19,03,
5335044,000003C0,false,Tx,0,8,00,00,02,00,00,00,00,00,
5345034,000003C0,false,Tx,0,8,00,00,02,00,00,00,00,00,
18445127489183785326,000001A0,false,Rx,0,8,4E,8C,77,F2,3F,00,00,00,
18445127489183785582,000001AC,false,Rx,0,8,AD,0C,FF,F3,BF,FF,19,03,
18445127489183785838,000002C0,false,Rx,0,8,D5,07,00,37,E0,3F,02,00,
5355063,000003C0,false,Tx,0,8,00,00,02,00,00,00,00,00,
18445127489183795395,1B000085,true,Rx,0,8,85,40,04,01,00,00,00,00,
5365033,000003C0,false,Tx,0,8,00,00,02,00,00,00,00,00,
18445127489183805336,000001A0,false,Rx,0,8,FB,5D,77,F2,3F,00,00,00,
18445127489183805592,000001AC,false,Rx,0,8,95,0D,FF,F3,BF,FF,19,03,
5375051,000003C0,false,Tx,0,8,00,00,02,00,00,00,00,00,
5385044,000003C0,false,Tx,0,8,00,00,02,00,00,00,00,00,
18445127489183825345,000001A0,false,Rx,0,8,3F,3E,77,F2,3F,00,00,00,
18445127489183825601,000001AC,false,Rx,0,8,F2,0E,FF,F3,BF,FF,19,03,
5395039,000003C0,false,Tx,0,8,00,00,02,00,00,00,00,00,
5405039,000003C0,false,Tx,0,8,00,00,02,00,00,00,00,00,
18445127489183845312,000001A0,false,Rx,0,8,E5,0F,77,F2,3F,00,00,00,
18445127489183845568,000001AC,false,Rx,0,8,B0,0F,FF,F3,BF,FF,19,03,
5415050,000003C0,false,Tx,0,8,00,00,02,00,00,00,00,00,
5425025,000003C0,false,Tx,0,8,00,00,02,00,00,00,00,00,
18445127489183865321,000001A0,false,Rx,0,8,7A,F0,76,F2,3F,00,00,00,
18445127489183865577,000001AC,false,Rx,0,8,13,00,FF,F3,BF,FF,19,03,
18445127489183865790,000002C0,false,Rx,0,8,84,08,00,37,E0,3F,02,00,
5435076,000003C0,false,Tx,0,8,00,00,02,00,00,00,00,00,
5445073,000003C0,false,Tx,0,8,00,00,02,00,00,00,00,00,
18445127489183885331,000001A0,false,Rx,0,8,A6,D1,76,F2,3F,00,00,00,
18445127489183885587,000001AC,false,Rx,0,8,DD,01,FF,F3,BF,FF,19,03,
5455066,000003C0,false,Tx,0,8,00,00,02,00,00,00,00,00,
5465067,000003C0,false,Tx,0,8,00,00,02,00,00,00,00,00,
18445127489183905340,000001A0,false,Rx,0,8,6A,B2,76,F2,3F,00,00,00,
18445127489183905553,000001AC,false,Rx,0,8,27,02,FF,F3,BF,FF,19,03,
18445127489183925307,000001A0,false,Rx,0,8,71,93,76,F2,3F,00,00,00,
18445127489183925520,000001AC,false,Rx,0,8,ED,03,FF,F3,BF,FF,19,03,
18445127489183945316,000001A0,false,Rx,0,8,43,74,76,F2,3F,00,00,00,
18445127489183945572,000001AC,false,Rx,0,8,A8,04,FF,F3,BF,FF,19,03,
18445127489183945785,000002C0,false,Rx,0,8,71,09,00,37,E0,3F,02,00,
18445127489183965326,000001A0,false,Rx,0,8,1D,55,76,F2,3F,00,00,00,
18445127489183965539,000001AC,false,Rx,0,8,09,05,FF,F3,BF,FF,19,03,
5553101,000003C0,false,Tx,0,8,00,00,02,00,00,00,00,00,
18445127489183985335,000001A0,false,Rx,0,8,82,36,76,F2,3F,00,00,00,
18445127489183985548,000001AC,false,Rx,0,8,DE,06,FF,F3,BF,FF,19,03,
5563047,000003C0,false,Tx,0,8,00,00,02,00,00,00,00,00,
18445127489183995361,1B000085,true,Rx,0,8,85,40,04,01,00,00,00,00,
5573023,000003C0,false,Tx,0,8,00,00,02,00,00,00,00,00,
18445127489184005344,000001A0,false,Rx,0,8,01,17,76,F2,3F,00,00,00,
18445127489184005558,000001AC,false,Rx,0,8,41,07,FF,F3,BF,FF,19,03,
18445127489184005856,17F00085,true,Rx,0,8,20,85,00,00,00,00,01,80,
18445127489184006155,1A5554A7,true,Rx,0,8,02,A0,02,00,00,00,00,80,
5583038,000003C0,false,Tx,0,8,00,00,02,00,00,00,00,00,
18445127489184025311,000001A0,false,Rx,0,8,3F,E8,75,F2,3F,00,00,00,
18445127489184025567,000001AC,false,Rx,0,8,AE,08,FF,F3,BF,FF,19,03,
18445127489184025780,000002C0,false,Rx,0,8,C5,0A,00,37,E0,3F,02,00,
5593101,000003C0,false,Tx,0,8,00,00,02,00,00,00,00,00,
5603077,000003C0,false,Tx,0,8,00,00,02,00,00,00,00,00,
5613078,000003C0,false,Tx,0,8,00,00,02,00,00,00,00,00,
18445127489184045235,000001A0,false,Rx,0,8,C2,C9,75,F2,3F,00,00,00,
18445127489184045449,000001AC,false,Rx,0,8,6F,09,FF,F3,BF,FF,19,03,
18445127489184045747,1A555510,true,Rx,0,8,80,34,4E,30,30,D5,00,00,
5623064,000003C0,false,Tx,0,8,00,00,02,00,00,00,00,00,
5633163,000003C0,false,Tx,0,8,00,00,02,00,00,00,00,00,
18445127489184065330,000001A0,false,Rx,0,8,5D,AA,75,F2,3F,00,00,00,
18445127489184065543,000001AC,false,Rx,0,8,43,0A,FF,F3,BF,FF,19,03,
5643066,000003C0,false,Tx,0,8,00,00,02,00,00,00,00,00,
5653126,000003C0,false,Tx,0,8,00,00,02,00,00,00,00,00,
18445127489184085297,000001A0,false,Rx,0,8,53,8B,75,F2,3F,00,00,00,
18445127489184085553,000001AC,false,Rx,0,8,EB,0B,FF,F3,BF,FF,19,03,
5663076,000003C0,false,Tx,0,8,00,00,02,00,00,00,00,00,
5673130,000003C0,false,Tx,0,8,00,00,02,00,00,00,00,00,
18445127489184105306,000001A0,false,Rx,0,8,B7,6C,75,F2,3F,00,00,00,
18445127489184105519,000001AC,false,Rx,0,8,AD,0C,FF,F3,BF,FF,19,03,
18445127489184105775,000002C0,false,Rx,0,8,80,0B,00,37,E0,3F,02,00,
5683074,000003C0,false,Tx,0,8,00,00,02,00,00,00,00,00,
5693122,000003C0,false,Tx,0,8,00,00,02,00,00,00,00,00,
18445127489184125316,000001A0,false,Rx,0,8,3C,5D,75,F2,3F,00,00,00,
18445127489184125529,000001AC,false,Rx,0,8,95,0D,FF,F3,BF,FF,19,03,
5703072,000003C0,false,Tx,0,8,00,00,02,00,00,00,00,00,
5713122,000003C0,false,Tx,0,8,00,00,02,00,00,00,00,00,
18445127489184145325,000001A0,false,Rx,0,8,F8,3E,75,F2,3F,00,00,00,
18445127489184145538,000001AC,false,Rx,0,8,F2,0E,FF,F3,BF,FF,19,03,
5723077,000003C0,false,Tx,0,8,00,00,02,00,00,00,00,00,
5733099,000003C0,false,Tx,0,8,00,00,02,00,00,00,00,00,
18445127489184165292,000001A0,false,Rx,0,8,80,1F,75,F2,3F,00,00,00,
18445127489184165548,000001AC,false,Rx,0,8,B0,0F,FF,F3,BF,FF,19,03,
18445127489184185301,000001A0,false,Rx,0,8,D5,00,75,F2,3F,00,00,00,
18445127489184185557,000001AC,false,Rx,0,8,13,00,FF,F3,BF,FF,19,03,
18445127489184185813,000002C0,false,Rx,0,8,D8,0C,00,37,E0,3F,02,00,
18445127489184195327,1B000085,true,Rx,0,8,85,40,04,01,00,00,00,00,
18445127489184205311,000001A0,false,Rx,0,8,A8,E1,74,F2,3F,00,00,00,
18445127489184205524,000001AC,false,Rx,0,8,DD,01,FF,F3,BF,FF,19,03,
5790212,000003C0,false,Tx,0,8,00,00,02,00,00,00,00,00,
18445127489184225277,000001A0,false,Rx,0,8,B2,C2,74,F2,3F,00,00,00,
18445127489184225533,000001AC,false,Rx,0,8,27,02,FF,F3,BF,FF,19,03,
5801159,000003C0,false,Tx,0,8,00,00,02,00,00,00,00,00,
5811108,000003C0,false,Tx,0,8,00,00,02,00,00,00,00,00,
18445127489184245457,000001A0,false,Rx,0,8,B6,93,74,F2,3F,00,00,00,
18445127489184245713,000001AC,false,Rx,0,8,ED,03,FF,F3,BF,FF,19,03,
5821080,000003C0,false,Tx,0,8,00,00,02,00,00,00,00,00,
5831077,000003C0,false,Tx,0,8,00,00,02,00,00,00,00,00,
18445127489184265381,000001A0,false,Rx,0,8,18,84,74,F2,3F,00,00,00,
18445127489184265637,000001AC,false,Rx,0,8,A8,04,FF,F3,BF,FF,19,03,
18445127489184265851,000002C0,false,Rx,0,8,B0,0D,00,37,E0,3F,02,00,
5841118,000003C0,false,Tx,0,8,00,00,02,00,00,00,00,00,
5851100,000003C0,false,Tx,0,8,00,00,02,00,00,00,00,00,
18445127489184285519,000001A0,false,Rx,0,8,13,65,74,F2,3F,00,00,00,
18445127489184285775,000001AC,false,Rx,0,8,09,05,FF,F3,BF,FF,19,03,
5861165,000003C0,false,Tx,0,8,00,00,02,00,00,00,00,00,
5871091,000003C0,false,Tx,0,8,00,00,02,00,00,00,00,00,
18445127489184305272,000001A0,false,Rx,0,8,5A,46,74,F2,3F,00,00,00,
18445127489184305528,000001AC,false,Rx,0,8,DE,06,FF,F3,BF,FF,19,03,
5881094,000003C0,false,Tx,0,8,00,00,02,00,00,00,00,00,
5891126,000003C0,false,Tx,0,8,00,00,02,00,00,00,00,00,
18445127489184325282,000001A0,false,Rx,0,8,0F,27,74,F2,3F,00,00,00,
18445127489184325538,000001AC,false,Rx,0,8,41,07,FF,F3,BF,FF,19,03,
5901095,000003C0,false,Tx,0,8,00,00,02,00,00,00,00,00,
5911095,000003C0,false,Tx,0,8,00,00,02,00,00,00,00,00,
18445127489184345291,000001A0,false,Rx,0,8,F5,08,74,F2,3F,00,00,00,
18445127489184345504,000001AC,false,Rx,0,8,AE,08,FF,F3,BF,FF,19,03,
18445127489184345760,000002C0,false,Rx,0,8,2E,0E,00,37,E0,3F,02,00,
5921083,000003C0,false,Tx,0,8,00,00,02,00,00,00,00,00,
5932678,000003C0,false,Tx,0,8,00,00,02,00,00,00,00,00,
18445127489184365343,000001A0,false,Rx,0,8,06,D9,73,F2,3F,00,00,00,
18445127489184365557,000001AC,false,Rx,0,8,6F,09,FF,F3,BF,FF,19,03,
5942100,000003C0,false,Tx,0,8,00,00,02,00,00,00,00,00,
5952065,000003C0,false,Tx,0,8,00,00,02,00,00,00,00,00,
18445127489184385267,000001A0,false,Rx,0,8,F2,9A,73,F2,3F,00,00,00,
18445127489184385523,000001AC,false,Rx,0,8,43,0A,FF,F3,BF,FF,19,03,
5962093,000003C0,false,Tx,0,8,00,00,02,00,00,00,00,00,
18445127489184395336,1B000085,true,Rx,0,8,85,40,04,01,00,00,00,00,
5972096,000003C0,false,Tx,0,8,00,00,02,00,00,00,00,00,
18445127489184405277,000001A0,false,Rx,0,8,60,4B,73,F2,3F,00,00,00,
18445127489184405490,000001AC,false,Rx,0,8,EB,0B,FF,F3,BF,FF,19,03,
5982095,000003C0,false,Tx,0,8,00,00,02,00,00,00,00,00,
18445127489184425303,000001A0,false,Rx,0,8,6C,0C,73,F2,3F,00,00,00,
18445127489184425516,000001AC,false,Rx,0,8,AD,0C,FF,F3,BF,FF,19,03,
18445127489184425772,000002C0,false,Rx,0,8,02,0F,00,37,E0,3F,02,00,
18445127489184445270,000001A0,false,Rx,0,8,90,BD,72,F2,3F,00,00,00,
18445127489184445526,000001AC,false,Rx,0,8,95,0D,FF,F3,BF,FF,19,03,
18445127489184465279,000001A0,false,Rx,0,8,D7,5E,72,F2,3F,00,00,00,
18445127489184465535,000001AC,false,Rx,0,8,F2,0E,FF,F3,BF,FF,19,03,
6040842,000003C0,false,Tx,0,8,00,00,02,00,00,00,00,00,
6050156,000003C0,false,Tx,0,8,00,00,02,00,00,00,00,00,
18445127489184485331,000001A0,false,Rx,0,8,B0,0F,72,F2,3F,00,00,00,
18445127489184485587,000001AC,false,Rx,0,8,B0,0F,FF,F3,BF,FF,19,03,
6060118,000003C0,false,Tx,0,8,00,00,02,00,00,00,00,00,
6070057,000003C0,false,Tx,0,8,00,00,02,00,00,00,00,00,
18445127489184505341,000001A0,false,Rx,0,8,21,C0,71,F2,3F,00,00,00,
18445127489184505554,000001AC,false,Rx,0,8,13,00,FF,F3,BF,FF,19,03,
18445127489184505810,000002C0,false,Rx,0,8,9A,00,00,37,E0,3F,02,00,
18445127489184506109,17F00085,true,Rx,0,8,20,85,00,00,00,00,01,80,
18445127489184506365,1A5554A7,true,Rx,0,8,02,A0,02,00,00,00,00,80,
6080107,000003C0,false,Tx,0,8,00,00,02,00,00,00,00,00,
6090089,000003C0,false,Tx,0,8,00,00,02,00,00,00,00,00,
18445127489184525265,000001A0,false,Rx,0,8,DC,71,71,F2,3F,00,00,00,
18445127489184525521,000001AC,false,Rx,0,8,DD,01,FF,F3,BF,FF,19,03,
6100114,000003C0,false,Tx,0,8,00,00,02,00,00,00,00,00,
6110094,000003C0,false,Tx,0,8,00,00,02,00,00,00,00,00,
18445127489184545317,000001A0,false,Rx,0,8,7B,32,71,F2,3F,00,00,00,
18445127489184545573,000001AC,false,Rx,0,8,27,02,FF,F3,BF,FF,19,03,
6120093,000003C0,false,Tx,0,8,00,00,02,00,00,00,00,00,
6130082,000003C0,false,Tx,0,8,00,00,02,00,00,00,00,00,
18445127489184565326,000001A0,false,Rx,0,8,C2,03,71,F2,3F,00,00,00,
18445127489184565540,000001AC,false,Rx,0,8,ED,03,FF,F3,BF,FF,19,03,
6140107,000003C0,false,Tx,0,8,00,00,02,00,00,00,00,00,
6150099,000003C0,false,Tx,0,8,00,00,02,00,00,00,00,00,
18445127489184585336,000001A0,false,Rx,0,8,CD,D4,70,F2,3F,00,00,00,
18445127489184585549,000001AC,false,Rx,0,8,A8,04,FF,F3,BF,FF,19,03,
18445127489184585805,000002C0,false,Rx,0,8,42,01,00,37,E0,3F,02,00,
6160168,000003C0,false,Tx,0,8,00,00,02,00,00,00,00,00,
18445127489184595362,1B000085,true,Rx,0,8,85,40,04,01,00,00,00,00,
6170191,000003C0,false,Tx,0,8,00,00,02,00,00,00,00,00,
18445127489184605303,000001A0,false,Rx,0,8,5A,C5,70,F2,3F,00,00,00,
18445127489184605559,000001AC,false,Rx,0,8,09,05,FF,F3,BF,FF,19,03,
6180100,000003C0,false,Tx,0,8,00,00,02,00,00,00,00,00,
6190132,000003C0,false,Tx,0,8,00,00,02,00,00,00,00,00,
18445127489184625312,000001A0,false,Rx,0,8,67,B6,70,F2,3F,00,00,00,
18445127489184625568,000001AC,false,Rx,0,8,DE,06,FF,F3,BF,FF,19,03,
6200100,000003C0,false,Tx,0,8,00,00,02,00,00,00,00,00,
6210122,000003C0,false,Tx,0,8,00,00,02,00,00,00,00,00,
18445127489184645279,000001A0,false,Rx,0,8,2D,A7,70,F2,3F,00,00,00,
18445127489184645535,000001AC,false,Rx,0,8,41,07,FF,F3,BF,FF,19,03,
6220085,000003C0,false,Tx,0,8,00,00,02,00,00,00,00,00,
6230105,000003C0,false,Tx,0,8,00,00,02,00,00,00,00,00,
18445127489184665331,000001A0,false,Rx,0,8,1E,B8,70,F2,3F,00,00,00,
18445127489184665544,000001AC,false,Rx,0,8,AE,08,FF,F3,BF,FF,19,03,
18445127489184665800,000002C0,false,Rx,0,8,BD,02,00,37,E0,3F,02,00,
6240087,000003C0,false,Tx,0,8,00,00,02,00,00,00,00,00,
18445127489184685255,000001A0,false,Rx,0,8,97,C9,70,F2,3F,00,00,00,
18445127489184685468,000001AC,false,Rx,0,8,6F,09,FF,F3,BF,FF,19,03,
18445127489184705264,000001A0,false,Rx,0,8,17,DA,70,F2,3F,00,00,00,
18445127489184705478,000001AC,false,Rx,0,8,43,0A,FF,F3,BF,FF,19,03,
18445127489184725274,000001A0,false,Rx,0,8,19,FB,70,F2,3F,00,00,00,
18445127489184725487,000001AC,false,Rx,0,8,EB,0B,FF,F3,BF,FF,19,03,
18445127489184745240,000001A0,false,Rx,0,8,AB,0C,71,F2,3F,00,00,00,
18445127489184745496,000001AC,false,Rx,0,8,AD,0C,FF,F3,BF,FF,19,03,
18445127489184745752,000002C0,false,Rx,0,8,05,03,00,37,E0,3F,02,00,
6313546,000003C0,false,Tx,0,8,00,00,02,00,00,00,00,00,
6323222,000003C0,false,Tx,0,8,00,00,02,00,00,00,00,00,
6333043,000003C0,false,Tx,0,8,00,00,02,00,00,00,00,00,
18445127489184765250,000001A0,false,Rx,0,8,E9,0D,71,F2,3F,00,00,00,
18445127489184765506,000001AC,false,Rx,0,8,95,0D,FF,F3,BF,FF,19,03,
6343094,000003C0,false,Tx,0,8,00,00,02,00,00,00,00,00,
6353194,000003C0,false,Tx,0,8,00,00,02,00,00,00,00,00,
18445127489184785302,000001A0,false,Rx,0,8,32,1E,71,F2,3F,00,00,00,
18445127489184785515,000001AC,false,Rx,0,8,F2,0E,FF,F3,BF,FF,19,03,
18445127489184795285,1B000085,true,Rx,0,8,85,40,04,01,00,00,00,00,
6363197,000003C0,false,Tx,0,8,00,00,02,00,00,00,00,00,
6373149,000003C0,false,Tx,0,8,00,00,02,00,00,00,00,00,
18445127489184805269,000001A0,false,Rx,0,8,21,1F,71,F2,3F,00,00,00,
18445127489184805482,000001AC,false,Rx,0,8,B0,0F,FF,F3,BF,FF,19,03,
6383096,000003C0,false,Tx,0,8,00,00,02,00,00,00,00,00,
6393145,000003C0,false,Tx,0,8,00,00,02,00,00,00,00,00,
18445127489184825235,000001A0,false,Rx,0,8,D6,10,71,F2,3F,00,00,00,
18445127489184825491,000001AC,false,Rx,0,8,13,00,FF,F3,BF,FF,19,03,
18445127489184825705,000002C0,false,Rx,0,8,9C,04,00,37,E0,3F,02,00,
6403096,000003C0,false,Tx,0,8,00,00,02,00,00,00,00,00,
6413145,000003C0,false,Tx,0,8,00,00,02,00,00,00,00,00,
18445127489184845245,000001A0,false,Rx,0,8,C3,01,71,F2,3F,00,00,00,
18445127489184845501,000001AC,false,Rx,0,8,DD,01,FF,F3,BF,FF,19,03,
6423113,000003C0,false,Tx,0,8,00,00,02,00,00,00,00,00,
6433119,000003C0,false,Tx,0,8,00,00,02,00,00,00,00,00,
18445127489184865254,000001A0,false,Rx,0,8,B2,02,71,F2,3F,00,00,00,
18445127489184865468,000001AC,false,Rx,0,8,27,02,FF,F3,BF,FF,19,03,
6443094,000003C0,false,Tx,0,8,00,00,02,00,00,00,00,00,
6453171,000003C0,false,Tx,0,8,00,00,02,00,00,00,00,00,
18445127489184885221,000001A0,false,Rx,0,8,C2,03,71,F2,3F,00,00,00,
18445127489184885477,000001AC,false,Rx,0,8,ED,03,FF,F3,BF,FF,19,03,
6463175,000003C0,false,Tx,0,8,00,00,02,00,00,00,00,00,
6473182,000003C0,false,Tx,0,8,00,00,02,00,00,00,00,00,
18445127489184905230,000001A0,false,Rx,0,8,CE,04,71,F2,3F,00,00,00,
18445127489184905486,000001AC,false,Rx,0,8,A8,04,FF,F3,BF,FF,19,03,
18445127489184905700,000002C0,false,Rx,0,8,88,05,00,37,E0,3F,02,00,
6483113,000003C0,false,Tx,0,8,00,00,02,00,00,00,00,00,
18445127489184925240,000001A0,false,Rx,0,8,FB,05,71,F2,3F,00,00,00,
18445127489184925453,000001AC,false,Rx,0,8,09,05,FF,F3,BF,FF,19,03,
6493203,000003C0,false,Tx,0,8,00,00,02,00,00,00,00,00,
6503105,000003C0,false,Tx,0,8,00,00,02,00,00,00,00,00,
6513185,000003C0,false,Tx,0,8,00,00,02,00,00,00,00,00,
18445127489184945207,000001A0,false,Rx,0,8,7B,16,71,F2,3F,00,00,00,
18445127489184945463,000001AC,false,Rx,0,8,DE,06,FF,F3,BF,FF,19,03,
18445127489184965259,000001A0,false,Rx,0,8,93,17,71,F2,3F,00,00,00,
18445127489184965515,000001AC,false,Rx,0,8,41,07,FF,F3,BF,FF,19,03,
18445127489184985225,000001A0,false,Rx,0,8,02,18,71,F2,3F,00,00,00,
18445127489184985481,000001AC,false,Rx,0,8,AE,08,FF,F3,BF,FF,19,03,
18445127489184985695,000002C0,false,Rx,0,8,75,06,00,37,E0,3F,02,00,
18445127489184995337,1B000085,true,Rx,0,8,85,40,04,01,00,00,00,00,
6568319,000003C0,false,Tx,0,8,00,00,02,00,00,00,00,00,
18445127489185005235,000001A0,false,Rx,0,8,36,09,71,F2,3F,00,00,00,
18445127489185005448,000001AC,false,Rx,0,8,6F,09,FF,F3,BF,FF,19,03,
18445127489185005747,17F00085,true,Rx,0,8,20,85,00,00,00,00,01,80,
18445127489185006045,1A5554A7,true,Rx,0,8,02,A0,02,00,00,00,00,80,
18445127489185006301,1A555510,true,Rx,0,8,81,32,38,4D,20,47,00,00,
6578168,000003C0,false,Tx,0,8,00,00,02,00,00,00,00,00,
6588129,000003C0,false,Tx,0,8,00,00,02,00,00,00,00,00,
18445127489185025202,000001A0,false,Rx,0,8,14,0A,71,F2,3F,00,00,00,
18445127489185025458,000001AC,false,Rx,0,8,43,0A,FF,F3,BF,FF,19,03,
6598124,000003C0,false,Tx,0,8,00,00,02,00,00,00,00,00,
6608132,000003C0,false,Tx,0,8,00,00,02,00,00,00,00,00,
18445127489185045211,000001A0,false,Rx,0,8,71,0B,71,F2,3F,00,00,00,
18445127489185045467,000001AC,false,Rx,0,8,EB,0B,FF,F3,BF,FF,19,03,
6618135,000003C0,false,Tx,0,8,00,00,02,00,00,00,00,00,
6628084,000003C0,false,Tx,0,8,00,00,02,00,00,00,00,00,
18445127489185065220,000001A0,false,Rx,0,8,AB,0C,71,F2,3F,00,00,00,
18445127489185065434,000001AC,false,Rx,0,8,AD,0C,FF,F3,BF,FF,19,03,
18445127489185065690,000002C0,false,Rx,0,8,D5,07,00,37,E0,3F,02,00,
6638260,000003C0,false,Tx,0,8,00,00,02,00,00,00,00,00,
6648202,000003C0,false,Tx,0,8,00,00,02,00,00,00,00,00,
18445127489185085230,000001A0,false,Rx,0,8,E9,0D,71,F2,3F,00,00,00,
18445127489185085443,000001AC,false,Rx,0,8,95,0D,FF,F3,BF,FF,19,03,
6658199,000003C0,false,Tx,0,8,00,00,02,00,00,00,00,00,
6668146,000003C0,false,Tx,0,8,00,00,02,00,00,00,00,00,
18445127489185105197,000001A0,false,Rx,0,8,90,0E,71,F2,3F,00,00,00,
18445127489185105453,000001AC,false,Rx,0,8,F2,0E,FF,F3,BF,FF,19,03,
6678122,000003C0,false,Tx,0,8,00,00,02,00,00,00,00,00,
6688123,000003C0,false,Tx,0,8,00,00,02,00,00,00,00,00,
18445127489185125206,000001A0,false,Rx,0,8,83,0F,71,F2,3F,00,00,00,
18445127489185125462,000001AC,false,Rx,0,8,B0,0F,FF,F3,BF,FF,19,03,
6698137,000003C0,false,Tx,0,8,00,00,02,00,00,00,00,00,
6708137,000003C0,false,Tx,0,8,00,00,02,00,00,00,00,00,
18445127489185145215,000001A0,false,Rx,0,8,74,00,71,F2,3F,00,00,00,
18445127489185145471,000001AC,false,Rx,0,8,13,00,FF,F3,BF,FF,19,03,
18445127489185145685,000002C0,false,Rx,0,8,84,08,00,37,E0,3F,02,00,
6718138,000003C0,false,Tx,0,8,00,00,02,00,00,00,00,00,
6728136,000003C0,false,Tx,0,8,00,00,02,00,00,00,00,00,
18445127489185165225,000001A0,false,Rx,0,8,C3,01,71,F2,3F,00,00,00,
18445127489185165438,000001AC,false,Rx,0,8,DD,01,FF,F3,BF,FF,19,03,
6738137,000003C0,false,Tx,0,8,00,00,02,00,00,00,00,00,
6748137,000003C0,false,Tx,0,8,00,00,02,00,00,00,00,00,
18445127489185185192,000001A0,false,Rx,0,8,B2,02,71,F2,3F,00,00,00,
18445127489185185448,000001AC,false,Rx,0,8,27,02,FF,F3,BF,FF,19,03,
6758139,000003C0,false,Tx,0,8,00,00,02,00,00,00,00,00,
18445127489185195260,1B000085,true,Rx,0,8,85,40,04,01,00,00,00,00,
18445127489185205244,000001A0,false,Rx,0,8,08,E3,70,F2,3F,00,00,00,
18445127489185205457,000001AC,false,Rx,0,8,ED,03,FF,F3,BF,FF,19,03,
18445127489185225210,000001A0,false,Rx,0,8,1B,94,70,F2,3F,00,00,00,
18445127489185225424,000001AC,false,Rx,0,8,A8,04,FF,F3,BF,FF,19,03,
18445127489185225680,000002C0,false,Rx,0,8,71,09,00,37,E0,3F,02,00,
18445127489185245177,000001A0,false,Rx,0,8,AD,15,70,F2,3F,00,00,00,
18445127489185245433,000001AC,false,Rx,0,8,09,05,FF,F3,BF,FF,19,03,
6820584,000003C0,false,Tx,0,8,00,00,02,00,00,00,00,00,
6830036,000003C0,false,Tx,0,8,00,00,02,00,00,00,00,00,
18445127489185265229,000001A0,false,Rx,0,8,17,76,6F,F2,3F,00,00,00,
18445127489185265485,000001AC,false,Rx,0,8,DE,06,FF,F3,BF,FF,19,03,
6839968,000003C0,false,Tx,0,8,00,00,02,00,00,00,00,00,
6850141,000003C0,false,Tx,0,8,00,00,02,00,00,00,00,00,
18445127489185285239,000001A0,false,Rx,0,8,FC,A7,6E,F2,3F,00,00,00,
18445127489185285495,000001AC,false,Rx,0,8,41,07,FF,F3,BF,FF,19,03,
6860142,000003C0,false,Tx,0,8,00,00,02,00,00,00,00,00,
6870126,000003C0,false,Tx,0,8,00,00,02,00,00,00,00,00,
18445127489185305205,000001A0,false,Rx,0,8,E3,C8,6D,F2,3F,00,00,00,
18445127489185305419,000001AC,false,Rx,0,8,AE,08,FF,F3,BF,FF,19,03,
18445127489185305675,000002C0,false,Rx,0,8,C5,0A,00,37,E0,3F,02,00,
6880140,000003C0,false,Tx,0,8,00,00,02,00,00,00,00,00,
6890195,000003C0,false,Tx,0,8,00,00,02,00,00,00,00,00,
18445127489185325172,000001A0,false,Rx,0,8,23,D9,6C,F2,3F,00,00,00,
18445127489185325428,000001AC,false,Rx,0,8,6F,09,FF,F3,BF,FF,19,03,
6900106,000003C0,false,Tx,0,8,00,00,02,00,00,00,00,00,
6910084,000003C0,false,Tx,0,8,00,00,02,00,00,00,00,00,
18445127489185345182,000001A0,false,Rx,0,8,31,CA,6B,F2,3F,00,00,00,
18445127489185345438,000001AC,false,Rx,0,8,43,0A,FF,F3,BF,FF,19,03,
6920110,000003C0,false,Tx,0,8,00,00,02,00,00,00,00,00,
6930105,000003C0,false,Tx,0,8,00,00,02,00,00,00,00,00,
18445127489185365191,000001A0,false,Rx,0,8,1D,AB,6A,F2,3F,00,00,00,
18445127489185365404,000001AC,false,Rx,0,8,EB,0B,FF,F3,BF,FF,19,03,
6940197,000003C0,false,Tx,0,8,00,00,02,00,00,00,00,00,
6950171,000003C0,false,Tx,0,8,00,00,02,00,00,00,00,00,
18445127489185385243,000001A0,false,Rx,0,8,CA,4C,69,F2,3F,00,00,00,
18445127489185385456,000001AC,false,Rx,0,8,AD,0C,FF,F3,BF,FF,19,03,
18445127489185385712,000002C0,false,Rx,0,8,80,0B,00,37,E0,3F,02,00,
6960152,000003C0,false,Tx,0,8,00,00,02,00,00,00,00,00,
18445127489185395226,1B000085,true,Rx,0,8,85,40,04,01,00,00,00,00,
6970104,000003C0,false,Tx,0,8,00,00,02,00,00,00,00,00,
18445127489185405167,000001A0,false,Rx,0,8,1F,BD,67,F2,3F,00,00,00,
18445127489185405423,000001AC,false,Rx,0,8,95,0D,FF,F3,BF,FF,19,03,
6980113,000003C0,false,Tx,0,8,00,00,02,00,00,00,00,00,
6990112,000003C0,false,Tx,0,8,00,00,02,00,00,00,00,00,
18445127489185425142,000001A0,false,Rx,0,8,0E,4E,66,F2,3F,00,00,00,
18445127489185425398,000001AC,false,Rx,0,8,F2,0E,FF,F3,BF,FF,19,03,
7000100,000003C0,false,Tx,0,8,00,00,02,00,00,00,00,00,
7010109,000003C0,false,Tx,0,8,00,00,02,00,00,00,00,00,
18445127489185445151,000001A0,false,Rx,0,8,5A,1F,65,F2,3F,00,00,00,
18445127489185445407,000001AC,false,Rx,0,8,B0,0F,FF,F3,BF,FF,19,03,
7020121,000003C0,false,Tx,0,8,00,00,02,00,00,00,00,00,
18445127489185465118,000001A0,false,Rx,0,8,8F,50,64,F2,3F,00,00,00,
18445127489185465374,000001AC,false,Rx,0,8,13,00,FF,F3,BF,FF,19,03,
18445127489185465587,000002C0,false,Rx,0,8,D8,0C,00,37,E0,3F,02,00,
18445127489185485127,000001A0,false,Rx,0,8,27,21,64,F2,3F,00,00,00,
18445127489185485341,000001AC,false,Rx,0,8,DD,01,FF,F3,BF,FF,19,03,
18445127489185505137,000001A0,false,Rx,0,8,22,72,64,F2,3F,00,00,00,
18445127489185505350,000001AC,false,Rx,0,8,27,02,FF,F3,BF,FF,19,03,
18445127489185505649,17F00085,true,Rx,0,8,20,85,00,00,00,00,01,80,
18445127489185505947,1A5554A7,true,Rx,0,8,02,A0,02,00,00,00,00,80,
18445127489185525103,000001A0,false,Rx,0,8,18,C3,64,F2,3F,00,00,00,
18445127489185525359,000001AC,false,Rx,0,8,ED,03,FF,F3,BF,FF,19,03,
7093879,000003C0,false,Tx,0,8,00,00,02,00,00,00,00,00,
7103164,000003C0,false,Tx,0,8,00,00,02,00,00,00,00,00,
7113040,000003C0,false,Tx,0,8,00,00,02,00,00,00,00,00,
18445127489185545113,000001A0,false,Rx,0,8,17,14,65,F2,3F,00,00,00,
18445127489185545369,000001AC,false,Rx,0,8,A8,04,FF,F3,BF,FF,19,03,
18445127489185545582,000002C0,false,Rx,0,8,B0,0D,00,37,E0,3F,02,00,
7123103,000003C0,false,Tx,0,8,00,00,02,00,00,00,00,00,
7133099,000003C0,false,Tx,0,8,00,00,02,00,00,00,00,00,
18445127489185565122,000001A0,false,Rx,0,8,56,45,65,F2,3F,00,00,00,
18445127489185565378,000001AC,false,Rx,0,8,09,05,FF,F3,BF,FF,19,03,
7143136,000003C0,false,Tx,0,8,00,00,02,00,00,00,00,00,
18445127489185585089,000001A0,false,Rx,0,8,83,96,65,F2,3F,00,00,00,
18445127489185585345,000001AC,false,Rx,0,8,DE,06,FF,F3,BF,FF,19,03,
7153257,000003C0,false,Tx,0,8,00,00,02,00,00,00,00,00,
7163130,000003C0,false,Tx,0,8,00,00,02,00,00,00,00,00,
18445127489185595158,1B000085,true,Rx,0,8,85,40,04,01,00,00,00,00,
7173090,000003C0,false,Tx,0,8,00,00,02,00,00,00,00,00,
18445127489185605098,000001A0,false,Rx,0,8,1F,C7,65,F2,3F,00,00,00,
18445127489185605354,000001AC,false,Rx,0,8,41,07,FF,F3,BF,FF,19,03,
7183144,000003C0,false,Tx,0,8,00,00,02,00,00,00,00,00,
7193109,000003C0,false,Tx,0,8,00,00,02,00,00,00,00,00,
18445127489185625108,000001A0,false,Rx,0,8,47,F8,65,F2,3F,00,00,00,
18445127489185625364,000001AC,false,Rx,0,8,AE,08,FF,F3,BF,FF,19,03,
18445127489185625620,000002C0,false,Rx,0,8,2E,0E,00,37,E0,3F,02,00,
7203149,000003C0,false,Tx,0,8,00,00,02,00,00,00,00,00,
7213113,000003C0,false,Tx,0,8,00,00,02,00,00,00,00,00,
18445127489185645117,000001A0,false,Rx,0,8,15,29,66,F2,3F,00,00,00,
18445127489185645331,000001AC,false,Rx,0,8,6F,09,FF,F3,BF,FF,19,03,
7223154,000003C0,false,Tx,0,8,00,00,02,00,00,00,00,00,
7233116,000003C0,false,Tx,0,8,00,00,02,00,00,00,00,00,
18445127489185665084,000001A0,false,Rx,0,8,28,5A,66,F2,3F,00,00,00,
18445127489185665340,000001AC,false,Rx,0,8,43,0A,FF,F3,BF,FF,19,03,
7243153,000003C0,false,Tx,0,8,00,00,02,00,00,00,00,00,
7253102,000003C0,false,Tx,0,8,00,00,02,00,00,00,00,00,
18445127489185685093,000001A0,false,Rx,0,8,18,9B,66,F2,3F,00,00,00,
18445127489185685349,000001AC,false,Rx,0,8,EB,0B,FF,F3,BF,FF,19,03,
7263158,000003C0,false,Tx,0,8,00,00,02,00,00,00,00,00,
7273105,000003C0,false,Tx,0,8,00,00,02,00,00,00,00,00,
18445127489185705103,000001A0,false,Rx,0,8,B6,CC,66,F2,3F,00,00,00,
18445127489185705316,000001AC,false,Rx,0,8,AD,0C,FF,F3,BF,FF,19,03,
18445127489185705572,000002C0,false,Rx,0,8,02,0F,00,37,E0,3F,02,00,
7283148,000003C0,false,Tx,0,8,00,00,02,00,00,00,00,00,
7293105,000003C0,false,Tx,0,8,00,00,02,00,00,00,00,00,
18445127489185725112,000001A0,false,Rx,0,8,55,0D,67,F2,3F,00,00,00,
18445127489185725326,000001AC,false,Rx,0,8,95,0D,FF,F3,BF,FF,19,03,
18445127489185745122,000001A0,false,Rx,0,8,E5,3E,67,F2,3F,00,00,00,
18445127489185745335,000001AC,false,Rx,0,8,F2,0E,FF,F3,BF,FF,19,03,
18445127489185765088,000001A0,false,Rx,0,8,20,7F,67,F2,3F,00,00,00,
18445127489185765344,000001AC,false,Rx,0,8,B0,0F,FF,F3,BF,FF,19,03,
7352553,000003C0,false,Tx,0,8,00,00,02,00,00,00,00,00,
18445127489185785098,000001A0,false,Rx,0,8,E9,90,67,F2,3F,00,00,00,
18445127489185785311,000001AC,false,Rx,0,8,13,00,FF,F3,BF,FF,19,03,
18445127489185785567,000002C0,false,Rx,0,8,9A,00,00,37,E0,3F,02,00,
7362202,000003C0,false,Tx,0,8,00,00,02,00,00,00,00,00,
18445127489185795124,1B000085,true,Rx,0,8,85,40,04,01,00,00,00,00,
7372119,000003C0,false,Tx,0,8,00,00,02,00,00,00,00,00,
18445127489185805107,000001A0,false,Rx,0,8,2A,C1,67,F2,3F,00,00,00,
18445127489185805321,000001AC,false,Rx,0,8,DD,01,FF,F3,BF,FF,19,03,
7382125,000003C0,false,Tx,0,8,00,00,02,00,00,00,00,00,
7392123,000003C0,false,Tx,0,8,00,00,02,00,00,00,00,00,
18445127489185825074,000001A0,false,Rx,0,8,92,F2,67,F2,3F,00,00,00,
18445127489185825330,000001AC,false,Rx,0,8,27,02,FF,F3,BF,FF,19,03,
7402144,000003C0,false,Tx,0,8,00,00,02,00,00,00,00,00,
7412154,000003C0,false,Tx,0,8,00,00,02,00,00,00,00,00,
18445127489185845083,000001A0,false,Rx,0,8,EA,23,68,F2,3F,00,00,00,
18445127489185845297,000001AC,false,Rx,0,8,ED,03,FF,F3,BF,FF,19,03,
7422140,000003C0,false,Tx,0,8,00,00,02,00,00,00,00,00,
7432145,000003C0,false,Tx,0,8,00,00,02,00,00,00,00,00,
18445127489185865093,000001A0,false,Rx,0,8,F9,54,68,F2,3F,00,00,00,
18445127489185865306,000001AC,false,Rx,0,8,A8,04,FF,F3,BF,FF,19,03,
18445127489185865562,000002C0,false,Rx,0,8,42,01,00,37,E0,3F,02,00,
7442164,000003C0,false,Tx,0,8,00,00,02,00,00,00,00,00,
7452144,000003C0,false,Tx,0,8,00,00,02,00,00,00,00,00,
18445127489185885060,000001A0,false,Rx,0,8,3B,85,68,F2,3F,00,00,00,
18445127489185885316,000001AC,false,Rx,0,8,09,05,FF,F3,BF,FF,19,03,
7462144,000003C0,false,Tx,0,8,00,00,02,00,00,00,00,00,
7472136,000003C0,false,Tx,0,8,00,00,02,00,00,00,00,00,
18445127489185905069,000001A0,false,Rx,0,8,72,A6,68,F2,3F,00,00,00,
18445127489185905325,000001AC,false,Rx,0,8,DE,06,FF,F3,BF,FF,19,03,
7482117,000003C0,false,Tx,0,8,00,00,02,00,00,00,00,00,
7492133,000003C0,false,Tx,0,8,00,00,02,00,00,00,00,00,
18445127489185925078,000001A0,false,Rx,0,8,4C,E7,68,F2,3F,00,00,00,
18445127489185925334,000001AC,false,Rx,0,8,41,07,FF,F3,BF,FF,19,03,
7502140,000003C0,false,Tx,0,8,00,00,02,00,00,00,00,00,
7512194,000003C0,false,Tx,0,8,00,00,02,00,00,00,00,00,
18445127489185945088,000001A0,false,Rx,0,8,17,08,69,F2,3F,00,00,00,
18445127489185945301,000001AC,false,Rx,0,8,AE,08,FF,F3,BF,FF,19,03,
18445127489185945557,000002C0,false,Rx,0,8,BD,02,00,37,E0,3F,02,00,
7522206,000003C0,false,Tx,0,8,00,00,02,00,00,00,00,00,
7532144,000003C0,false,Tx,0,8,00,00,02,00,00,00,00,00,
18445127489185965055,000001A0,false,Rx,0,8,48,39,69,F2,3F,00,00,00,
18445127489185965311,000001AC,false,Rx,0,8,6F,09,FF,F3,BF,FF,19,03,
18445127489185965566,1A555510,true,Rx,0,8,82,30,35,32,33,AE,00,00,
7542167,000003C0,false,Tx,0,8,00,00,02,00,00,00,00,00,
18445127489185985064,000001A0,false,Rx,0,8,BC,7A,69,F2,3F,00,00,00,
18445127489185985320,000001AC,false,Rx,0,8,43,0A,FF,F3,BF,FF,19,03,
18445127489185995133,1B000085,true,Rx,0,8,85,40,04,01,00,00,00,00,
18445127489186004988,000001A0,false,Rx,0,8,E7,9B,69,F2,3F,00,00,00,
18445127489186005201,000001AC,false,Rx,0,8,EB,0B,FF,F3,BF,FF,19,03,
18445127489186005500,17F00085,true,Rx,0,8,20,85,00,00,00,00,01,80,
18445127489186005799,1A5554A7,true,Rx,0,8,02,A0,02,00,00,00,00,80,
18445127489186025083,000001A0,false,Rx,0,8,56,BC,69,F2,3F,00,00,00,
18445127489186025296,000001AC,false,Rx,0,8,AD,0C,FF,F3,BF,FF,19,03,
18445127489186025552,000002C0,false,Rx,0,8,05,03,00,37,E0,3F,02,00,
18445127489186045050,000001A0,false,Rx,0,8,60,ED,69,F2,3F,00,00,00,
18445127489186045306,000001AC,false,Rx,0,8,95,0D,FF,F3,BF,FF,19,03,
7625600,000003C0,false,Tx,0,8,00,00,02,00,00,00,00,00,
18445127489186065059,000001A0,false,Rx,0,8,14,0E,6A,F2,3F,00,00,00,
18445127489186065272,000001AC,false,Rx,0,8,F2,0E,FF,F3,BF,FF,19,03,
7635220,000003C0,false,Tx,0,8,00,00,02,00,00,00,00,00,
7645105,000003C0,false,Tx,0,8,00,00,02,00,00,00,00,00,
18445127489186085068,000001A0,false,Rx,0,8,6C,2F,6A,F2,3F,00,00,00,
18445127489186085282,000001AC,false,Rx,0,8,B0,0F,FF,F3,BF,FF,19,03,
7655117,000003C0,false,Tx,0,8,00,00,02,00,00,00,00,00,
7665106,000003C0,false,Tx,0,8,00,00,02,00,00,00,00,00,
18445127489186105078,000001A0,false,Rx,0,8,26,40,6A,F2,3F,00,00,00,
18445127489186105291,000001AC,false,Rx,0,8,13,00,FF,F3,BF,FF,19,03,
18445127489186105547,000002C0,false,Rx,0,8,9C,04,00,37,E0,3F,02,00,
7675190,000003C0,false,Tx,0,8,00,00,02,00,00,00,00,00,
7685130,000003C0,false,Tx,0,8,00,00,02,00,00,00,00,00,
18445127489186125045,000001A0,false,Rx,0,8,58,71,6A,F2,3F,00,00,00,
18445127489186125258,000001AC,false,Rx,0,8,DD,01,FF,F3,BF,FF,19,03,
7695187,000003C0,false,Tx,0,8,00,00,02,00,00,00,00,00,
7705135,000003C0,false,Tx,0,8,00,00,02,00,00,00,00,00,
18445127489186145011,000001A0,false,Rx,0,8,17,92,6A,F2,3F,00,00,00,
18445127489186145267,000001AC,false,Rx,0,8,27,02,FF,F3,BF,FF,19,03,
7715173,000003C0,false,Tx,0,8,00,00,02,00,00,00,00,00,
7725170,000003C0,false,Tx,0,8,00,00,02,00,00,00,00,00,
18445127489186165063,000001A0,false,Rx,0,8,13,C3,6A,F2,3F,00,00,00,
18445127489186165277,000001AC,false,Rx,0,8,ED,03,FF,F3,BF,FF,19,03,
7735163,000003C0,false,Tx,0,8,00,00,02,00,00,00,00,00,
7745158,000003C0,false,Tx,0,8,00,00,02,00,00,00,00,00,
18445127489186185030,000001A0,false,Rx,0,8,74,E4,6A,F2,3F,00,00,00,
18445127489186185286,000001AC,false,Rx,0,8,A8,04,FF,F3,BF,FF,19,03,
18445127489186185499,000002C0,false,Rx,0,8,88,05,00,37,E0,3F,02,00,
7755173,000003C0,false,Tx,0,8,00,00,02,00,00,00,00,00,
18445127489186195099,1B000085,true,Rx,0,8,85,40,04,01,00,00,00,00,
7765160,000003C0,false,Tx,0,8,00,00,02,00,00,00,00,00,
18445127489186204997,000001A0,false,Rx,0,8,29,15,6B,F2,3F,00,00,00,
18445127489186205253,000001AC,false,Rx,0,8,09,05,FF,F3,BF,FF,19,03,
7775171,000003C0,false,Tx,0,8,00,00,02,00,00,00,00,00,
7785163,000003C0,false,Tx,0,8,00,00,02,00,00,00,00,00,
18445127489186225049,000001A0,false,Rx,0,8,C2,26,6B,F2,3F,00,00,00,
18445127489186225305,000001AC,false,Rx,0,8,DE,06,FF,F3,BF,FF,19,03,
7795178,000003C0,false,Tx,0,8,00,00,02,00,00,00,00,00,
7805165,000003C0,false,Tx,0,8,00,00,02,00,00,00,00,00,
18445127489186245058,000001A0,false,Rx,0,8,97,47,6B,F2,3F,00,00,00,
18445127489186245272,000001AC,false,Rx,0,8,41,07,FF,F3,BF,FF,19,03,
18445127489186265025,000001A0,false,Rx,0,8,CF,78,6B,F2,3F,00,00,00,
18445127489186265281,000001AC,false,Rx,0,8,AE,08,FF,F3,BF,FF,19,03,
18445127489186265494,000002C0,false,Rx,0,8,75,06,00,37,E0,3F,02,00,
18445127489186285035,000001A0,false,Rx,0,8,67,99,6B,F2,3F,00,00,00,
18445127489186285248,000001AC,false,Rx,0,8,6F,09,FF,F3,BF,FF,19,03,
18445127489186305044,000001A0,false,Rx,0,8,8C,AA,6B,F2,3F,00,00,00,
18445127489186305257,000001AC,false,Rx,0,8,43,0A,FF,F3,BF,FF,19,03,
7887230,000003C0,false,Tx,0,8,00,00,02,00,00,00,00,00,
18445127489186325011,000001A0,false,Rx,0,8,F6,DB,6B,F2,3F,00,00,00,
18445127489186325267,000001AC,false,Rx,0,8,EB,0B,FF,F3,BF,FF,19,03,
7897207,000003C0,false,Tx,0,8,00,00,02,00,00,00,00,00,
7907117,000003C0,false,Tx,0,8,00,00,02,00,00,00,00,00,
18445127489186345020,000001A0,false,Rx,0,8,49,0C,6C,F2,3F,00,00,00,
18445127489186345276,000001AC,false,Rx,0,8,AD,0C,FF,F3,BF,FF,19,03,
18445127489186345489,000002C0,false,Rx,0,8,D5,07,00,37,E0,3F,02,00,
7917101,000003C0,false,Tx,0,8,00,00,02,00,00,00,00,00,
7927118,000003C0,false,Tx,0,8,00,00,02,00,00,00,00,00,
18445127489186365030,000001A0,false,Rx,0,8,C2,3D,6C,F2,3F,00,00,00,
18445127489186365243,000001AC,false,Rx,0,8,95,0D,FF,F3,BF,FF,19,03,
7937057,000003C0,false,Tx,0,8,00,00,02,00,00,00,00,00,
7947170,000003C0,false,Tx,0,8,00,00,02,00,00,00,00,00,
18445127489186384996,000001A0,false,Rx,0,8,06,5E,6C,F2,3F,00,00,00,
18445127489186385252,000001AC,false,Rx,0,8,F2,0E,FF,F3,BF,FF,19,03,
7957208,000003C0,false,Tx,0,8,00,00,02,00,00,00,00,00,
18445127489186395065,1B000085,true,Rx,0,8,85,40,04,01,00,00,00,00,
7967148,000003C0,false,Tx,0,8,00,00,02,00,00,00,00,00,
18445127489186405006,000001A0,false,Rx,0,8,40,9F,6C,F2,3F,00,00,00,
18445127489186405262,000001AC,false,Rx,0,8,B0,0F,FF,F3,BF,FF,19,03,
7977117,000003C0,false,Tx,0,8,00,00,02,00,00,00,00,00,
7987094,000003C0,false,Tx,0,8,00,00,02,00,00,00,00,00,
18445127489186425045,000001A0,false,Rx,0,8,61,D0,6C,F2,3F,00,00,00,
18445127489186425301,000001AC,false,Rx,0,8,13,00,FF,F3,BF,FF,19,03,
18445127489186425514,000002C0,false,Rx,0,8,84,08,00,37,E0,3F,02,00,
7997129,000003C0,false,Tx,0,8,00,00,02,00,00,00,00,00,
8007136,000003C0,false,Tx,0,8,00,00,02,00,00,00,00,00,
18445127489186445055,000001A0,false,Rx,0,8,BE,21,6D,F2,3F,00,00,00,
18445127489186445268,000001AC,false,Rx,0,8,DD,01,FF,F3,BF,FF,19,03,
8017127,000003C0,false,Tx,0,8,00,00,02,00,00,00,00,00,
8027143,000003C0,false,Tx,0,8,00,00,02,00,00,00,00,00,
18445127489186465064,000001A0,false,Rx,0,8,D0,52,6D,F2,3F,00,00,00,
18445127489186465277,000001AC,false,Rx,0,8,27,02,FF,F3,BF,FF,19,03,
8037136,000003C0,false,Tx,0,8,00,00,02,00,00,00,00,00,
8047140,000003C0,false,Tx,0,8,00,00,02,00,00,00,00,00,
18445127489186484988,000001A0,false,Rx,0,8,02,43,6D,F2,3F,00,00,00,
18445127489186485244,000001AC,false,Rx,0,8,ED,03,FF,F3,BF,FF,19,03,
8057127,000003C0,false,Tx,0,8,00,00,02,00,00,00,00,00,
8067101,000003C0,false,Tx,0,8,00,00,02,00,00,00,00,00,
18445127489186505040,000001A0,false,Rx,0,8,DB,D4,6C,F2,3F,00,00,00,
18445127489186505253,000001AC,false,Rx,0,8,A8,04,FF,F3,BF,FF,19,03,
18445127489186505509,000002C0,false,Rx,0,8,71,09,00,37,E0,3F,02,00,
18445127489186505765,17F00085,true,Rx,0,8,20,85,00,00,00,00,01,80,
18445127489186506064,1A5554A7,true,Rx,0,8,02,A0,02,00,00,00,00,80,
18445127489186525050,000001A0,false,Rx,0,8,19,05,6C,F2,3F,00,00,00,
18445127489186525263,000001AC,false,Rx,0,8,09,05,FF,F3,BF,FF,19,03,
18445127489186545016,000001A0,false,Rx,0,8,63,E6,6A,F2,3F,00,00,00,
18445127489186545272,000001AC,false,Rx,0,8,DE,06,FF,F3,BF,FF,19,03,
18445127489186565026,000001A0,false,Rx,0,8,A7,97,69,F2,3F,00,00,00,
18445127489186565282,000001AC,false,Rx,0,8,41,07,FF,F3,BF,FF,19,03,
8144126,000003C0,false,Tx,0,8,00,00,02,00,00,00,00,00,
18445127489186585035,000001A0,false,Rx,0,8,88,28,68,F2,3F,00,00,00,
18445127489186585291,000001AC,false,Rx,0,8,AE,08,FF,F3,BF,FF,19,03,
18445127489186585504,000002C0,false,Rx,0,8,C5,0A,00,37,E0,3F,02,00,
8154194,000003C0,false,Tx,0,8,00,00,02,00,00,00,00,00,
18445127489186595061,1B000085,true,Rx,0,8,85,40,04,01,00,00,00,00,
8164174,000003C0,false,Tx,0,8,00,00,02,00,00,00,00,00,
18445127489186605002,000001A0,false,Rx,0,8,40,E9,66,F2,3F,00,00,00,
18445127489186605258,000001AC,false,Rx,0,8,6F,09,FF,F3,BF,FF,19,03,
8174180,000003C0,false,Tx,0,8,00,00,02,00,00,00,00,00,
8184167,000003C0,false,Tx,0,8,00,00,02,00,00,00,00,00,
18445127489186625011,000001A0,false,Rx,0,8,5C,0A,66,F2,3F,00,00,00,
18445127489186625267,000001AC,false,Rx,0,8,43,0A,FF,F3,BF,FF,19,03,
8194175,000003C0,false,Tx,0,8,00,00,02,00,00,00,00,00,
8204168,000003C0,false,Tx,0,8,00,00,02,00,00,00,00,00,
18445127489186645021,000001A0,false,Rx,0,8,40,BB,65,F2,3F,00,00,00,
18445127489186645277,000001AC,false,Rx,0,8,EB,0B,FF,F3,BF,FF,19,03,
8214196,000003C0,false,Tx,0,8,00,00,02,00,00,00,00,00,
8224170,000003C0,false,Tx,0,8,00,00,02,00,00,00,00,00,
18445127489186665030,000001A0,false,Rx,0,8,27,DC,65,F2,3F,00,00,00,
18445127489186665243,000001AC,false,Rx,0,8,AD,0C,FF,F3,BF,FF,19,03,
18445127489186665499,000002C0,false,Rx,0,8,80,0B,00,37,E0,3F,02,00,
8234171,000003C0,false,Tx,0,8,00,00,02,00,00,00,00,00,
8244156,000003C0,false,Tx,0,8,00,00,02,00,00,00,00,00,
18445127489186684997,000001A0,false,Rx,0,8,CA,2D,66,F2,3F,00,00,00,
18445127489186685253,000001AC,false,Rx,0,8,95,0D,FF,F3,BF,FF,19,03,
8254194,000003C0,false,Tx,0,8,00,00,02,00,00,00,00,00,
8264216,000003C0,false,Tx,0,8,00,00,02,00,00,00,00,00,
18445127489186705006,000001A0,false,Rx,0,8,65,6E,66,F2,3F,00,00,00,
18445127489186705262,000001AC,false,Rx,0,8,F2,0E,FF,F3,BF,FF,19,03,
8274174,000003C0,false,Tx,0,8,00,00,02,00,00,00,00,00,
8284237,000003C0,false,Tx,0,8,00,00,02,00,00,00,00,00,
18445127489186725016,000001A0,false,Rx,0,8,23,AF,66,F2,3F,00,00,00,
18445127489186725229,000001AC,false,Rx,0,8,B0,0F,FF,F3,BF,FF,19,03,
8294185,000003C0,false,Tx,0,8,00,00,02,00,00,00,00,00,
8304181,000003C0,false,Tx,0,8,00,00,02,00,00,00,00,00,
18445127489186745025,000001A0,false,Rx,0,8,02,E0,66,F2,3F,00,00,00,
18445127489186745238,000001AC,false,Rx,0,8,13,00,FF,F3,BF,FF,19,03,
18445127489186745494,000002C0,false,Rx,0,8,D8,0C,00,37,E0,3F,02,00,
8314259,000003C0,false,Tx,0,8,00,00,02,00,00,00,00,00,
8324681,000003C0,false,Tx,0,8,00,00,02,00,00,00,00,00,
18445127489186764992,000001A0,false,Rx,0,8,DD,11,67,F2,3F,00,00,00,
18445127489186765248,000001AC,false,Rx,0,8,DD,01,FF,F3,BF,FF,19,03,
18445127489186785001,000001A0,false,Rx,0,8,D8,42,67,F2,3F,00,00,00,
18445127489186785257,000001AC,false,Rx,0,8,27,02,FF,F3,BF,FF,19,03,
18445127489186795070,1B000085,true,Rx,0,8,85,40,04,01,00,00,00,00,
18445127489186804968,000001A0,false,Rx,0,8,61,73,67,F2,3F,00,00,00,
18445127489186805224,000001AC,false,Rx,0,8,ED,03,FF,F3,BF,FF,19,03,
