Time Stamp,ID,Extended,Dir,Bus,LEN,D1,D2,D3,D4,D5,D6,D7,D8
60185320,000003C0,false,Tx,0,8,00,00,02,00,00,00,00,00,
60195236,000003C0,false,Tx,0,8,00,00,02,00,00,00,00,00,
18445127489238631126,1B000085,true,Rx,0,8,85,40,01,0C,00,00,00,00,
18445127489238640726,000001A0,false,Rx,0,8,36,09,71,F2,3F,00,00,00,
18445127489238640939,000001AC,false,Rx,0,8,6F,09,FF,F3,BF,FF,19,03,
18445127489238641238,17F00085,true,Rx,0,8,20,85,00,00,00,00,01,80,
18445127489238641494,1A5554A7,true,Rx,0,8,02,A0,02,00,00,00,00,80,
60205249,000003C0,false,Tx,0,8,00,00,02,00,00,00,00,00,
18445127489238641792,1A555510,true,Rx,0,8,80,34,4E,30,30,D5,00,00,
60215258,000003C0,false,Tx,0,8,00,00,02,00,00,00,00,00,
18445127489238660565,000001A0,false,Rx,0,8,14,0A,71,F2,3F,00,00,00,
18445127489238660778,000001AC,false,Rx,0,8,43,0A,FF,F3,BF,FF,19,03,
60225228,000003C0,false,Tx,0,8,00,00,02,00,00,00,00,00,
60235279,000003C0,false,Tx,0,8,00,00,02,00,00,00,00,00,
18445127489238680489,000001A0,false,Rx,0,8,71,0B,71,F2,3F,00,00,00,
18445127489238680745,000001AC,false,Rx,0,8,EB,0B,FF,F3,BF,FF,19,03,
60245177,000003C0,false,Tx,0,8,00,00,02,00,00,00,00,00,
60255291,000003C0,false,Tx,0,8,00,00,02,00,00,00,00,00,
18445127489238700541,000001A0,false,Rx,0,8,AB,0C,71,F2,3F,00,00,00,
18445127489238700754,000001AC,false,Rx,0,8,AD,0C,FF,F3,BF,FF,19,03,
18445127489238701010,000002C0,false,Rx,0,8,80,0B,00,37,E0,3F,02,00,
60265194,000003C0,false,Tx,0,8,00,00,02,00,00,00,00,00,
60276215,000003C0,false,Tx,0,8,00,00,02,00,00,00,00,00,
18445127489238720550,000001A0,false,Rx,0,8,E9,0D,71,F2,3F,00,00,00,
18445127489238720763,000001AC,false,Rx,0,8,95,0D,FF,F3,BF,FF,19,03,
60286263,000003C0,false,Tx,0,8,00,00,02,00,00,00,00,00,
18445127489238740517,000001A0,false,Rx,0,8,90,0E,71,F2,3F,00,00,00,
18445127489238740773,000001AC,false,Rx,0,8,F2,0E,FF,F3,BF,FF,19,03,
18445127489238760526,000001A0,false,Rx,0,8,83,0F,71,F2,3F,00,00,00,
18445127489238760740,000001AC,false,Rx,0,8,B0,0F,FF,F3,BF,FF,19,03,
18445127489238780536,000001A0,false,Rx,0,8,74,00,71,F2,3F,00,00,00,
18445127489238780749,000001AC,false,Rx,0,8,13,00,FF,F3,BF,FF,19,03,
18445127489238781005,000002C0,false,Rx,0,8,D8,0C,00,37,E0,3F,02,00,
60354573,000003C0,false,Tx,0,8,00,00,02,00,00,00,00,00,
18445127489238800502,000001A0,false,Rx,0,8,C3,01,71,F2,3F,00,00,00,
18445127489238800716,000001AC,false,Rx,0,8,DD,01,FF,F3,BF,FF,19,03,
60366255,000003C0,false,Tx,0,8,00,00,02,00,00,00,00,00,
60376265,000003C0,false,Tx,0,8,00,00,02,00,00,00,00,00,
18445127489238820469,000001A0,false,Rx,0,8,B2,02,71,F2,3F,00,00,00,
18445127489238820725,000001AC,false,Rx,0,8,27,02,FF,F3,BF,FF,19,03,
60386240,000003C0,false,Tx,0,8,00,00,02,00,00,00,00,00,
18445127489238830581,1B000085,true,Rx,0,8,85,40,01,05,00,00,00,00,
60396191,000003C0,false,Tx,0,8,00,00,02,00,00,00,00,00,
18445127489238840521,000001A0,false,Rx,0,8,C2,03,71,F2,3F,00,00,00,
18445127489238840735,000001AC,false,Rx,0,8,ED,03,FF,F3,BF,FF,19,03,
60406225,000003C0,false,Tx,0,8,00,00,02,00,00,00,00,00,
60416214,000003C0,false,Tx,0,8,00,00,02,00,00,00,00,00,
18445127489238860531,000001A0,false,Rx,0,8,CE,04,71,F2,3F,00,00,00,
18445127489238860744,000001AC,false,Rx,0,8,A8,04,FF,F3,BF,FF,19,03,
18445127489238861000,000002C0,false,Rx,0,8,B0,0D,00,37,E0,3F,02,00,
60426205,000003C0,false,Tx,0,8,00,00,02,00,00,00,00,00,
60436185,000003C0,false,Tx,0,8,00,00,02,00,00,00,00,00,
18445127489238880497,000001A0,false,Rx,0,8,FB,05,71,F2,3F,00,00,00,
18445127489238880711,000001AC,false,Rx,0,8,09,05,FF,F3,BF,FF,19,03,
60446223,000003C0,false,Tx,0,8,00,00,02,00,00,00,00,00,
60456202,000003C0,false,Tx,0,8,00,00,02,00,00,00,00,00,
18445127489238900507,000001A0,false,Rx,0,8,D9,06,71,F2,3F,00,00,00,
18445127489238900763,000001AC,false,Rx,0,8,DE,06,FF,F3,BF,FF,19,03,
60466221,000003C0,false,Tx,0,8,00,00,02,00,00,00,00,00,
60476206,000003C0,false,Tx,0,8,00,00,02,00,00,00,00,00,
18445127489238920516,000001A0,false,Rx,0,8,31,07,71,F2,3F,00,00,00,
18445127489238920730,000001AC,false,Rx,0,8,41,07,FF,F3,BF,FF,19,03,
60486234,000003C0,false,Tx,0,8,00,00,02,00,00,00,00,00,
60496218,000003C0,false,Tx,0,8,00,00,02,00,00,00,00,00,
18445127489238940526,000001A0,false,Rx,0,8,A0,08,71,F2,3F,00,00,00,
18445127489238940739,000001AC,false,Rx,0,8,AE,08,FF,F3,BF,FF,19,03,
18445127489238940995,000002C0,false,Rx,0,8,2E,0E,00,37,E0,3F,02,00,
60506224,000003C0,false,Tx,0,8,00,00,02,00,00,00,00,00,
60516194,000003C0,false,Tx,0,8,00,00,02,00,00,00,00,00,
18445127489238960492,000001A0,false,Rx,0,8,36,09,71,F2,3F,00,00,00,
18445127489238960748,000001AC,false,Rx,0,8,6F,09,FF,F3,BF,FF,19,03,
60526233,000003C0,false,Tx,0,8,00,00,02,00,00,00,00,00,
60536211,000003C0,false,Tx,0,8,00,00,02,00,00,00,00,00,
18445127489238980502,000001A0,false,Rx,0,8,14,0A,71,F2,3F,00,00,00,
18445127489238980715,000001AC,false,Rx,0,8,43,0A,FF,F3,BF,FF,19,03,
18445127489239000511,000001A0,false,Rx,0,8,71,0B,71,F2,3F,00,00,00,
18445127489239000725,000001AC,false,Rx,0,8,EB,0B,FF,F3,BF,FF,19,03,
18445127489239020478,000001A0,false,Rx,0,8,AB,0C,71,F2,3F,00,00,00,
18445127489239020734,000001AC,false,Rx,0,8,AD,0C,FF,F3,BF,FF,19,03,
18445127489239020990,000002C0,false,Rx,0,8,02,0F,00,37,E0,3F,02,00,
18445127489239030504,1B000085,true,Rx,0,8,85,40,01,05,00,00,00,00,
60597435,000003C0,false,Tx,0,8,00,00,02,00,00,00,00,00,
18445127489239040454,000001A0,false,Rx,0,8,E9,0D,71,F2,3F,00,00,00,
18445127489239040710,000001AC,false,Rx,0,8,95,0D,FF,F3,BF,FF,19,03,
60620697,000003C0,false,Tx,0,8,00,00,02,00,00,00,00,00,
18445127489239060421,000001A0,false,Rx,0,8,90,0E,71,F2,3F,00,00,00,
18445127489239060677,000001AC,false,Rx,0,8,F2,0E,FF,F3,BF,FF,19,03,
60630280,000003C0,false,Tx,0,8,00,00,02,00,00,00,00,00,
60640301,000003C0,false,Tx,0,8,00,00,02,00,00,00,00,00,
18445127489239080473,000001A0,false,Rx,0,8,83,0F,71,F2,3F,00,00,00,
18445127489239080687,000001AC,false,Rx,0,8,B0,0F,FF,F3,BF,FF,19,03,
60650277,000003C0,false,Tx,0,8,00,00,02,00,00,00,00,00,
60660238,000003C0,false,Tx,0,8,00,00,02,00,00,00,00,00,
18445127489239100355,000001A0,false,Rx,0,8,74,00,71,F2,3F,00,00,00,
18445127489239100611,000001AC,false,Rx,0,8,13,00,FF,F3,BF,FF,19,03,
18445127489239100867,000002C0,false,Rx,0,8,9A,00,00,37,E0,3F,02,00,
60670252,000003C0,false,Tx,0,8,00,00,02,00,00,00,00,00,
60680262,000003C0,false,Tx,0,8,00,00,02,00,00,00,00,00,
18445127489239120449,000001A0,false,Rx,0,8,C3,01,71,F2,3F,00,00,00,
18445127489239120705,000001AC,false,Rx,0,8,DD,01,FF,F3,BF,FF,19,03,
60690283,000003C0,false,Tx,0,8,00,00,02,00,00,00,00,00,
60700239,000003C0,false,Tx,0,8,00,00,02,00,00,00,00,00,
18445127489239140502,000001A0,false,Rx,0,8,B2,02,71,F2,3F,00,00,00,
18445127489239140758,000001AC,false,Rx,0,8,27,02,FF,F3,BF,FF,19,03,
18445127489239141014,17F00085,true,Rx,0,8,20,85,00,00,00,00,01,80,
18445127489239141312,1A5554A7,true,Rx,0,8,02,A0,02,00,00,00,00,80,
60710255,000003C0,false,Tx,0,8,00,00,02,00,00,00,00,00,
60720219,000003C0,false,Tx,0,8,00,00,02,00,00,00,00,00,
18445127489239160468,000001A0,false,Rx,0,8,C2,03,71,F2,3F,00,00,00,
18445127489239160682,000001AC,false,Rx,0,8,ED,03,FF,F3,BF,FF,19,03,
60730265,000003C0,false,Tx,0,8,00,00,02,00,00,00,00,00,
60740245,000003C0,false,Tx,0,8,00,00,02,00,00,00,00,00,
18445127489239180478,000001A0,false,Rx,0,8,CE,04,71,F2,3F,00,00,00,
18445127489239180691,000001AC,false,Rx,0,8,A8,04,FF,F3,BF,FF,19,03,
18445127489239180947,000002C0,false,Rx,0,8,42,01,00,37,E0,3F,02,00,
60750256,000003C0,false,Tx,0,8,00,00,02,00,00,00,00,00,
60760263,000003C0,false,Tx,0,8,00,00,02,00,00,00,00,00,
18445127489239200444,000001A0,false,Rx,0,8,FB,05,71,F2,3F,00,00,00,
18445127489239200700,000001AC,false,Rx,0,8,09,05,FF,F3,BF,FF,19,03,
60770326,000003C0,false,Tx,0,8,00,00,02,00,00,00,00,00,
60780370,000003C0,false,Tx,0,8,00,00,02,00,00,00,00,00,
18445127489239220454,000001A0,false,Rx,0,8,D9,06,71,F2,3F,00,00,00,
18445127489239220667,000001AC,false,Rx,0,8,DE,06,FF,F3,BF,FF,19,03,
60790266,000003C0,false,Tx,0,8,00,00,02,00,00,00,00,00,
18445127489239230523,1B000085,true,Rx,0,8,85,40,01,05,00,00,00,00,
60800329,000003C0,false,Tx,0,8,00,00,02,00,00,00,00,00,
18445127489239240463,000001A0,false,Rx,0,8,31,07,71,F2,3F,00,00,00,
18445127489239240677,000001AC,false,Rx,0,8,41,07,FF,F3,BF,FF,19,03,
60821995,000003C0,false,Tx,0,8,00,00,02,00,00,00,00,00,
18445127489239260515,000001A0,false,Rx,0,8,A0,08,71,F2,3F,00,00,00,
18445127489239260729,000001AC,false,Rx,0,8,AE,08,FF,F3,BF,FF,19,03,
18445127489239260985,000002C0,false,Rx,0,8,BD,02,00,37,E0,3F,02,00,
18445127489239280439,000001A0,false,Rx,0,8,36,09,71,F2,3F,00,00,00,
18445127489239280695,000001AC,false,Rx,0,8,6F,09,FF,F3,BF,FF,19,03,
18445127489239300449,000001A0,false,Rx,0,8,14,0A,71,F2,3F,00,00,00,
18445127489239300662,000001AC,false,Rx,0,8,43,0A,FF,F3,BF,FF,19,03,
60875145,000003C0,false,Tx,0,8,00,00,02,00,00,00,00,00,
18445127489239320501,000001A0,false,Rx,0,8,71,0B,71,F2,3F,00,00,00,
18445127489239320714,000001AC,false,Rx,0,8,EB,0B,FF,F3,BF,FF,19,03,
60885150,000003C0,false,Tx,0,8,00,00,02,00,00,00,00,00,
60895245,000003C0,false,Tx,0,8,00,00,02,00,00,00,00,00,
18445127489239340425,000001A0,false,Rx,0,8,AB,0C,71,F2,3F,00,00,00,
18445127489239340681,000001AC,false,Rx,0,8,AD,0C,FF,F3,BF,FF,19,03,
18445127489239340894,000002C0,false,Rx,0,8,05,03,00,37,E0,3F,02,00,
60905225,000003C0,false,Tx,0,8,00,00,02,00,00,00,00,00,
60915203,000003C0,false,Tx,0,8,00,00,02,00,00,00,00,00,
18445127489239360434,000001A0,false,Rx,0,8,E9,0D,71,F2,3F,00,00,00,
18445127489239360648,000001AC,false,Rx,0,8,95,0D,FF,F3,BF,FF,19,03,
60925243,000003C0,false,Tx,0,8,00,00,02,00,00,00,00,00,
60935216,000003C0,false,Tx,0,8,00,00,02,00,00,00,00,00,
18445127489239380444,000001A0,false,Rx,0,8,90,0E,71,F2,3F,00,00,00,
18445127489239380657,000001AC,false,Rx,0,8,F2,0E,FF,F3,BF,FF,19,03,
60945257,000003C0,false,Tx,0,8,00,00,02,00,00,00,00,00,
60955260,000003C0,false,Tx,0,8,00,00,02,00,00,00,00,00,
18445127489239400411,000001A0,false,Rx,0,8,83,0F,71,F2,3F,00,00,00,
18445127489239400667,000001AC,false,Rx,0,8,B0,0F,FF,F3,BF,FF,19,03,
60965209,000003C0,false,Tx,0,8,00,00,02,00,00,00,00,00,
60975256,000003C0,false,Tx,0,8,00,00,02,00,00,00,00,00,
18445127489239420420,000001A0,false,Rx,0,8,74,00,71,F2,3F,00,00,00,
18445127489239420676,000001AC,false,Rx,0,8,13,00,FF,F3,BF,FF,19,03,
18445127489239420932,000002C0,false,Rx,0,8,9C,04,00,37,E0,3F,02,00,
60985205,000003C0,false,Tx,0,8,00,00,02,00,00,00,00,00,
18445127489239430489,1B000085,true,Rx,0,8,85,40,01,05,00,00,00,00,
60995217,000003C0,false,Tx,0,8,00,00,02,00,00,00,00,00,
18445127489239440472,000001A0,false,Rx,0,8,C3,01,71,F2,3F,00,00,00,
18445127489239440728,000001AC,false,Rx,0,8,DD,01,FF,F3,BF,FF,19,03,
61005217,000003C0,false,Tx,0,8,00,00,02,00,00,00,00,00,
61015241,000003C0,false,Tx,0,8,00,00,02,00,00,00,00,00,
18445127489239460439,000001A0,false,Rx,0,8,B2,02,71,F2,3F,00,00,00,
18445127489239460652,000001AC,false,Rx,0,8,27,02,FF,F3,BF,FF,19,03,
61025277,000003C0,false,Tx,0,8,00,00,02,00,00,00,00,00,
61035320,000003C0,false,Tx,0,8,00,00,02,00,00,00,00,00,
18445127489239480406,000001A0,false,Rx,0,8,C2,03,71,F2,3F,00,00,00,
18445127489239480662,000001AC,false,Rx,0,8,ED,03,FF,F3,BF,FF,19,03,
61045258,000003C0,false,Tx,0,8,00,00,02,00,00,00,00,00,
61055318,000003C0,false,Tx,0,8,00,00,02,00,00,00,00,00,
18445127489239500415,000001A0,false,Rx,0,8,CE,04,71,F2,3F,00,00,00,
18445127489239500671,000001AC,false,Rx,0,8,A8,04,FF,F3,BF,FF,19,03,
18445127489239500884,000002C0,false,Rx,0,8,88,05,00,37,E0,3F,02,00,
61065205,000003C0,false,Tx,0,8,00,00,02,00,00,00,00,00,
61075378,000003C0,false,Tx,0,8,00,00,02,00,00,00,00,00,
18445127489239520424,000001A0,false,Rx,0,8,FB,05,71,F2,3F,00,00,00,
18445127489239520638,000001AC,false,Rx,0,8,09,05,FF,F3,BF,FF,19,03,
18445127489239540391,000001A0,false,Rx,0,8,D9,06,71,F2,3F,00,00,00,
18445127489239540647,000001AC,false,Rx,0,8,DE,06,FF,F3,BF,FF,19,03,
18445127489239560401,000001A0,false,Rx,0,8,31,07,71,F2,3F,00,00,00,
18445127489239560657,000001AC,false,Rx,0,8,41,07,FF,F3,BF,FF,19,03,
61138906,000003C0,false,Tx,0,8,00,00,02,00,00,00,00,00,
18445127489239580410,000001A0,false,Rx,0,8,A0,08,71,F2,3F,00,00,00,
18445127489239580666,000001AC,false,Rx,0,8,AE,08,FF,F3,BF,FF,19,03,
18445127489239580879,000002C0,false,Rx,0,8,75,06,00,37,E0,3F,02,00,
61148322,000003C0,false,Tx,0,8,00,00,02,00,00,00,00,00,
61158290,000003C0,false,Tx,0,8,00,00,02,00,00,00,00,00,
18445127489239600419,000001A0,false,Rx,0,8,36,09,71,F2,3F,00,00,00,
18445127489239600633,000001AC,false,Rx,0,8,6F,09,FF,F3,BF,FF,19,03,
18445127489239600931,1A555510,true,Rx,0,8,81,32,38,4D,20,47,00,00,
61168229,000003C0,false,Tx,0,8,00,00,02,00,00,00,00,00,
61178216,000003C0,false,Tx,0,8,00,00,02,00,00,00,00,00,
18445127489239620472,000001A0,false,Rx,0,8,14,0A,71,F2,3F,00,00,00,
18445127489239620685,000001AC,false,Rx,0,8,43,0A,FF,F3,BF,FF,19,03,
61188227,000003C0,false,Tx,0,8,00,00,02,00,00,00,00,00,
18445127489239630455,1B000085,true,Rx,0,8,85,40,01,05,00,00,00,00,
61198254,000003C0,false,Tx,0,8,00,00,02,00,00,00,00,00,
18445127489239640438,000001A0,false,Rx,0,8,71,0B,71,F2,3F,00,00,00,
18445127489239640694,000001AC,false,Rx,0,8,EB,0B,FF,F3,BF,FF,19,03,
18445127489239640950,17F00085,true,Rx,0,8,20,85,00,00,00,00,01,80,
18445127489239641249,1A5554A7,true,Rx,0,8,02,A0,02,00,00,00,00,80,
61208279,000003C0,false,Tx,0,8,00,00,02,00,00,00,00,00,
61218311,000003C0,false,Tx,0,8,00,00,02,00,00,00,00,00,
18445127489239660405,000001A0,false,Rx,0,8,AB,0C,71,F2,3F,00,00,00,
18445127489239660618,000001AC,false,Rx,0,8,AD,0C,FF,F3,BF,FF,19,03,
18445127489239660874,000002C0,false,Rx,0,8,D5,07,00,37,E0,3F,02,00,
61228254,000003C0,false,Tx,0,8,00,00,02,00,00,00,00,00,
61238270,000003C0,false,Tx,0,8,00,00,02,00,00,00,00,00,
18445127489239680414,000001A0,false,Rx,0,8,E9,0D,71,F2,3F,00,00,00,
18445127489239680628,000001AC,false,Rx,0,8,95,0D,FF,F3,BF,FF,19,03,
61248306,000003C0,false,Tx,0,8,00,00,02,00,00,00,00,00,
61258321,000003C0,false,Tx,0,8,00,00,02,00,00,00,00,00,
18445127489239700381,000001A0,false,Rx,0,8,90,0E,71,F2,3F,00,00,00,
18445127489239700637,000001AC,false,Rx,0,8,F2,0E,FF,F3,BF,FF,19,03,
61268278,000003C0,false,Tx,0,8,00,00,02,00,00,00,00,00,
61278284,000003C0,false,Tx,0,8,00,00,02,00,00,00,00,00,
18445127489239720391,000001A0,false,Rx,0,8,83,0F,71,F2,3F,00,00,00,
18445127489239720647,000001AC,false,Rx,0,8,B0,0F,FF,F3,BF,FF,19,03,
61288270,000003C0,false,Tx,0,8,00,00,02,00,00,00,00,00,
61298245,000003C0,false,Tx,0,8,00,00,02,00,00,00,00,00,
18445127489239740443,000001A0,false,Rx,0,8,74,00,71,F2,3F,00,00,00,
18445127489239740699,000001AC,false,Rx,0,8,13,00,FF,F3,BF,FF,19,03,
18445127489239740912,000002C0,false,Rx,0,8,84,08,00,37,E0,3F,02,00,
61308232,000003C0,false,Tx,0,8,00,00,02,00,00,00,00,00,
61318243,000003C0,false,Tx,0,8,00,00,02,00,00,00,00,00,
18445127489239760409,000001A0,false,Rx,0,8,C3,01,71,F2,3F,00,00,00,
18445127489239760623,000001AC,false,Rx,0,8,DD,01,FF,F3,BF,FF,19,03,
18445127489239780376,000001A0,false,Rx,0,8,B2,02,71,F2,3F,00,00,00,
18445127489239780632,000001AC,false,Rx,0,8,27,02,FF,F3,BF,FF,19,03,
18445127489239800428,000001A0,false,Rx,0,8,C2,03,71,F2,3F,00,00,00,
18445127489239800684,000001AC,false,Rx,0,8,ED,03,FF,F3,BF,FF,19,03,
18445127489239820395,000001A0,false,Rx,0,8,CE,04,71,F2,3F,00,00,00,
18445127489239820608,000001AC,false,Rx,0,8,A8,04,FF,F3,BF,FF,19,03,
18445127489239820864,000002C0,false,Rx,0,8,71,09,00,37,E0,3F,02,00,
18445127489239830464,1B000085,true,Rx,0,8,85,40,01,05,00,00,00,00,
18445127489239840362,000001A0,false,Rx,0,8,FB,05,71,F2,3F,00,00,00,
18445127489239840618,000001AC,false,Rx,0,8,09,05,FF,F3,BF,FF,19,03,
61411946,000003C0,false,Tx,0,8,00,00,02,00,00,00,00,00,
61421311,000003C0,false,Tx,0,8,00,00,02,00,00,00,00,00,
18445127489239860457,000001A0,false,Rx,0,8,D9,06,71,F2,3F,00,00,00,
18445127489239860713,000001AC,false,Rx,0,8,DE,06,FF,F3,BF,FF,19,03,
61431270,000003C0,false,Tx,0,8,00,00,02,00,00,00,00,00,
61441265,000003C0,false,Tx,0,8,00,00,02,00,00,00,00,00,
18445127489239880423,000001A0,false,Rx,0,8,31,07,71,F2,3F,00,00,00,
18445127489239880679,000001AC,false,Rx,0,8,41,07,FF,F3,BF,FF,19,03,
61451307,000003C0,false,Tx,0,8,00,00,02,00,00,00,00,00,
61461292,000003C0,false,Tx,0,8,00,00,02,00,00,00,00,00,
18445127489239900433,000001A0,false,Rx,0,8,A0,08,71,F2,3F,00,00,00,
18445127489239900646,000001AC,false,Rx,0,8,AE,08,FF,F3,BF,FF,19,03,
18445127489239900902,000002C0,false,Rx,0,8,C5,0A,00,37,E0,3F,02,00,
61471293,000003C0,false,Tx,0,8,00,00,02,00,00,00,00,00,
61481296,000003C0,false,Tx,0,8,00,00,02,00,00,00,00,00,
18445127489239920442,000001A0,false,Rx,0,8,36,09,71,F2,3F,00,00,00,
18445127489239920698,000001AC,false,Rx,0,8,6F,09,FF,F3,BF,FF,19,03,
61491284,000003C0,false,Tx,0,8,00,00,02,00,00,00,00,00,
61501365,000003C0,false,Tx,0,8,00,00,02,00,00,00,00,00,
18445127489239940409,000001A0,false,Rx,0,8,14,0A,71,F2,3F,00,00,00,
18445127489239940665,000001AC,false,Rx,0,8,43,0A,FF,F3,BF,FF,19,03,
61511294,000003C0,false,Tx,0,8,00,00,02,00,00,00,00,00,
61521278,000003C0,false,Tx,0,8,00,00,02,00,00,00,00,00,
18445127489239960376,000001A0,false,Rx,0,8,71,0B,71,F2,3F,00,00,00,
18445127489239960589,000001AC,false,Rx,0,8,EB,0B,FF,F3,BF,FF,19,03,
61531358,000003C0,false,Tx,0,8,00,00,02,00,00,00,00,00,
61541374,000003C0,false,Tx,0,8,00,00,02,00,00,00,00,00,
18445127489239980428,000001A0,false,Rx,0,8,AB,0C,71,F2,3F,00,00,00,
18445127489239980641,000001AC,false,Rx,0,8,AD,0C,FF,F3,BF,FF,19,03,
18445127489239980897,000002C0,false,Rx,0,8,80,0B,00,37,E0,3F,02,00,
61551301,000003C0,false,Tx,0,8,00,00,02,00,00,00,00,00,
61561527,000003C0,false,Tx,0,8,00,00,02,00,00,00,00,00,
18445127489240000394,000001A0,false,Rx,0,8,E9,0D,71,F2,3F,00,00,00,
18445127489240000650,000001AC,false,Rx,0,8,95,0D,FF,F3,BF,FF,19,03,
61571284,000003C0,false,Tx,0,8,00,00,02,00,00,00,00,00,
61581304,000003C0,false,Tx,0,8,00,00,02,00,00,00,00,00,
18445127489240020404,000001A0,false,Rx,0,8,90,0E,71,F2,3F,00,00,00,
18445127489240020660,000001AC,false,Rx,0,8,F2,0E,FF,F3,BF,FF,19,03,
18445127489240030387,1B000085,true,Rx,0,8,85,40,01,05,00,00,00,00,
18445127489240040443,000001A0,false,Rx,0,8,83,0F,71,F2,3F,00,00,00,
18445127489240040657,000001AC,false,Rx,0,8,B0,0F,FF,F3,BF,FF,19,03,
18445127489240060367,000001A0,false,Rx,0,8,74,00,71,F2,3F,00,00,00,
18445127489240060623,000001AC,false,Rx,0,8,13,00,FF,F3,BF,FF,19,03,
18445127489240060879,000002C0,false,Rx,0,8,D8,0C,00,37,E0,3F,02,00,
18445127489240080334,000001A0,false,Rx,0,8,C3,01,71,F2,3F,00,00,00,
18445127489240080590,000001AC,false,Rx,0,8,DD,01,FF,F3,BF,FF,19,03,
61655870,000003C0,false,Tx,0,8,00,00,02,00,00,00,00,00,
18445127489240100429,000001A0,false,Rx,0,8,B2,02,71,F2,3F,00,00,00,
18445127489240100642,000001AC,false,Rx,0,8,27,02,FF,F3,BF,FF,19,03,
61665315,000003C0,false,Tx,0,8,00,00,02,00,00,00,00,00,
61675346,000003C0,false,Tx,0,8,00,00,02,00,00,00,00,00,
18445127489240120353,000001A0,false,Rx,0,8,C2,03,71,F2,3F,00,00,00,
18445127489240120609,000001AC,false,Rx,0,8,ED,03,FF,F3,BF,FF,19,03,
61685269,000003C0,false,Tx,0,8,00,00,02,00,00,00,00,00,
61695276,000003C0,false,Tx,0,8,00,00,02,00,00,00,00,00,
18445127489240140362,000001A0,false,Rx,0,8,CE,04,71,F2,3F,00,00,00,
18445127489240140618,000001AC,false,Rx,0,8,A8,04,FF,F3,BF,FF,19,03,
18445127489240140832,000002C0,false,Rx,0,8,B0,0D,00,37,E0,3F,02,00,
18445127489240141130,17F00085,true,Rx,0,8,20,85,00,00,00,00,01,80,
61705257,000003C0,false,Tx,0,8,00,00,02,00,00,00,00,00,
18445127489240141429,1A5554A7,true,Rx,0,8,02,A0,02,00,00,00,00,80,
61715376,000003C0,false,Tx,0,8,00,00,02,00,00,00,00,00,
18445127489240160372,000001A0,false,Rx,0,8,FB,05,71,F2,3F,00,00,00,
18445127489240160628,000001AC,false,Rx,0,8,09,05,FF,F3,BF,FF,19,03,
61725235,000003C0,false,Tx,0,8,00,00,02,00,00,00,00,00,
61735248,000003C0,false,Tx,0,8,00,00,02,00,00,00,00,00,
18445127489240180381,000001A0,false,Rx,0,8,D9,06,71,F2,3F,00,00,00,
18445127489240180595,000001AC,false,Rx,0,8,DE,06,FF,F3,BF,FF,19,03,
61745241,000003C0,false,Tx,0,8,00,00,02,00,00,00,00,00,
61755261,000003C0,false,Tx,0,8,00,00,02,00,00,00,00,00,
18445127489240200348,000001A0,false,Rx,0,8,31,07,71,F2,3F,00,00,00,
18445127489240200604,000001AC,false,Rx,0,8,41,07,FF,F3,BF,FF,19,03,
61765211,000003C0,false,Tx,0,8,00,00,02,00,00,00,00,00,
61775269,000003C0,false,Tx,0,8,00,00,02,00,00,00,00,00,
18445127489240220357,000001A0,false,Rx,0,8,A0,08,71,F2,3F,00,00,00,
18445127489240220613,000001AC,false,Rx,0,8,AE,08,FF,F3,BF,FF,19,03,
18445127489240220869,000002C0,false,Rx,0,8,2E,0E,00,37,E0,3F,02,00,
61785233,000003C0,false,Tx,0,8,00,00,02,00,00,00,00,00,
18445127489240230426,1B000085,true,Rx,0,8,85,40,01,05,00,00,00,00,
61795240,000003C0,false,Tx,0,8,00,00,02,00,00,00,00,00,
18445127489240240367,000001A0,false,Rx,0,8,36,09,71,F2,3F,00,00,00,
18445127489240240580,000001AC,false,Rx,0,8,6F,09,FF,F3,BF,FF,19,03,
61805214,000003C0,false,Tx,0,8,00,00,02,00,00,00,00,00,
61815237,000003C0,false,Tx,0,8,00,00,02,00,00,00,00,00,
18445127489240260376,000001A0,false,Rx,0,8,14,0A,71,F2,3F,00,00,00,
18445127489240260590,000001AC,false,Rx,0,8,43,0A,FF,F3,BF,FF,19,03,
61825228,000003C0,false,Tx,0,8,00,00,02,00,00,00,00,00,
61835264,000003C0,false,Tx,0,8,00,00,02,00,00,00,00,00,
18445127489240280386,000001A0,false,Rx,0,8,71,0B,71,F2,3F,00,00,00,
18445127489240280642,000001AC,false,Rx,0,8,EB,0B,FF,F3,BF,FF,19,03,
61845256,000003C0,false,Tx,0,8,00,00,02,00,00,00,00,00,
61855334,000003C0,false,Tx,0,8,00,00,02,00,00,00,00,00,
18445127489240300352,000001A0,false,Rx,0,8,AB,0C,71,F2,3F,00,00,00,
18445127489240300608,000001AC,false,Rx,0,8,AD,0C,FF,F3,BF,FF,19,03,
18445127489240300822,000002C0,false,Rx,0,8,02,0F,00,37,E0,3F,02,00,
18445127489240320362,000001A0,false,Rx,0,8,E9,0D,71,F2,3F,00,00,00,
18445127489240320575,000001AC,false,Rx,0,8,95,0D,FF,F3,BF,FF,19,03,
18445127489240340371,000001A0,false,Rx,0,8,90,0E,71,F2,3F,00,00,00,
18445127489240340585,000001AC,false,Rx,0,8,F2,0E,FF,F3,BF,FF,19,03,
18445127489240360338,000001A0,false,Rx,0,8,83,0F,71,F2,3F,00,00,00,
18445127489240360594,000001AC,false,Rx,0,8,B0,0F,FF,F3,BF,FF,19,03,
61926544,000003C0,false,Tx,0,8,00,00,02,00,00,00,00,00,
61936306,000003C0,false,Tx,0,8,00,00,02,00,00,00,00,00,
18445127489240380347,000001A0,false,Rx,0,8,74,00,71,F2,3F,00,00,00,
18445127489240380561,000001AC,false,Rx,0,8,13,00,FF,F3,BF,FF,19,03,
18445127489240380817,000002C0,false,Rx,0,8,9A,00,00,37,E0,3F,02,00,
61946307,000003C0,false,Tx,0,8,00,00,02,00,00,00,00,00,
61956296,000003C0,false,Tx,0,8,00,00,02,00,00,00,00,00,
18445127489240400357,000001A0,false,Rx,0,8,C3,01,71,F2,3F,00,00,00,
18445127489240400570,000001AC,false,Rx,0,8,DD,01,FF,F3,BF,FF,19,03,
61966289,000003C0,false,Tx,0,8,00,00,02,00,00,00,00,00,
61976329,000003C0,false,Tx,0,8,00,00,02,00,00,00,00,00,
18445127489240420324,000001A0,false,Rx,0,8,B2,02,71,F2,3F,00,00,00,
18445127489240420580,000001AC,false,Rx,0,8,27,02,FF,F3,BF,FF,19,03,
61986373,000003C0,false,Tx,0,8,00,00,02,00,00,00,00,00,
18445127489240430392,1B000085,true,Rx,0,8,85,40,01,05,00,00,00,00,
61996259,000003C0,false,Tx,0,8,00,00,02,00,00,00,00,00,
18445127489240440333,000001A0,false,Rx,0,8,C2,03,71,F2,3F,00,00,00,
18445127489240440589,000001AC,false,Rx,0,8,ED,03,FF,F3,BF,FF,19,03,
62006284,000003C0,false,Tx,0,8,00,00,02,00,00,00,00,00,
62016257,000003C0,false,Tx,0,8,00,00,02,00,00,00,00,00,
18445127489240460342,000001A0,false,Rx,0,8,CE,04,71,F2,3F,00,00,00,
18445127489240460556,000001AC,false,Rx,0,8,A8,04,FF,F3,BF,FF,19,03,
18445127489240460812,000002C0,false,Rx,0,8,42,01,00,37,E0,3F,02,00,
62026275,000003C0,false,Tx,0,8,00,00,02,00,00,00,00,00,
62036247,000003C0,false,Tx,0,8,00,00,02,00,00,00,00,00,
18445127489240480309,000001A0,false,Rx,0,8,FB,05,71,F2,3F,00,00,00,
18445127489240480565,000001AC,false,Rx,0,8,09,05,FF,F3,BF,FF,19,03,
62046248,000003C0,false,Tx,0,8,00,00,02,00,00,00,00,00,
62056247,000003C0,false,Tx,0,8,00,00,02,00,00,00,00,00,
18445127489240500319,000001A0,false,Rx,0,8,D9,06,71,F2,3F,00,00,00,
18445127489240500575,000001AC,false,Rx,0,8,DE,06,FF,F3,BF,FF,19,03,
62066271,000003C0,false,Tx,0,8,00,00,02,00,00,00,00,00,
62076256,000003C0,false,Tx,0,8,00,00,02,00,00,00,00,00,
18445127489240520371,000001A0,false,Rx,0,8,31,07,71,F2,3F,00,00,00,
18445127489240520627,000001AC,false,Rx,0,8,41,07,FF,F3,BF,FF,19,03,
62086249,000003C0,false,Tx,0,8,00,00,02,00,00,00,00,00,
62096280,000003C0,false,Tx,0,8,00,00,02,00,00,00,00,00,
18445127489240540337,000001A0,false,Rx,0,8,A0,08,71,F2,3F,00,00,00,
18445127489240540551,000001AC,false,Rx,0,8,AE,08,FF,F3,BF,FF,19,03,
18445127489240540807,000002C0,false,Rx,0,8,BD,02,00,37,E0,3F,02,00,
62106250,000003C0,false,Tx,0,8,00,00,02,00,00,00,00,00,
18445127489240560347,000001A0,false,Rx,0,8,36,09,71,F2,3F,00,00,00,
18445127489240560560,000001AC,false,Rx,0,8,6F,09,FF,F3,BF,FF,19,03,
18445127489240560859,1A555510,true,Rx,0,8,82,30,35,32,33,AE,00,00,
18445127489240580314,000001A0,false,Rx,0,8,14,0A,71,F2,3F,00,00,00,
18445127489240580570,000001AC,false,Rx,0,8,43,0A,FF,F3,BF,FF,19,03,
18445127489240600323,000001A0,false,Rx,0,8,71,0B,71,F2,3F,00,00,00,
18445127489240600536,000001AC,false,Rx,0,8,EB,0B,FF,F3,BF,FF,19,03,
62170981,000003C0,false,Tx,0,8,00,00,02,00,00,00,00,00,
62180298,000003C0,false,Tx,0,8,00,00,02,00,00,00,00,00,
18445127489240620332,000001A0,false,Rx,0,8,AB,0C,71,F2,3F,00,00,00,
18445127489240620546,000001AC,false,Rx,0,8,AD,0C,FF,F3,BF,FF,19,03,
18445127489240620802,000002C0,false,Rx,0,8,05,03,00,37,E0,3F,02,00,
62190264,000003C0,false,Tx,0,8,00,00,02,00,00,00,00,00,
18445127489240630358,1B000085,true,Rx,0,8,85,40,01,05,00,00,00,00,
62200329,000003C0,false,Tx,0,8,00,00,02,00,00,00,00,00,
18445127489240640299,000001A0,false,Rx,0,8,E9,0D,71,F2,3F,00,00,00,
18445127489240640555,000001AC,false,Rx,0,8,95,0D,FF,F3,BF,FF,19,03,
18445127489240640854,17F00085,true,Rx,0,8,20,85,00,00,00,00,01,80,
18445127489240641110,1A5554A7,true,Rx,0,8,02,A0,02,00,00,00,00,80,
62210244,000003C0,false,Tx,0,8,00,00,02,00,00,00,00,00,
62220247,000003C0,false,Tx,0,8,00,00,02,00,00,00,00,00,
18445127489240660309,000001A0,false,Rx,0,8,90,0E,71,F2,3F,00,00,00,
18445127489240660565,000001AC,false,Rx,0,8,F2,0E,FF,F3,BF,FF,19,03,
62230285,000003C0,false,Tx,0,8,00,00,02,00,00,00,00,00,
62240257,000003C0,false,Tx,0,8,00,00,02,00,00,00,00,00,
18445127489240680318,000001A0,false,Rx,0,8,83,0F,71,F2,3F,00,00,00,
18445127489240680531,000001AC,false,Rx,0,8,B0,0F,FF,F3,BF,FF,19,03,
62250263,000003C0,false,Tx,0,8,00,00,02,00,00,00,00,00,
62260271,000003C0,false,Tx,0,8,00,00,02,00,00,00,00,00,
18445127489240700370,000001A0,false,Rx,0,8,74,00,71,F2,3F,00,00,00,
18445127489240700583,000001AC,false,Rx,0,8,13,00,FF,F3,BF,FF,19,03,
18445127489240700839,000002C0,false,Rx,0,8,9C,04,00,37,E0,3F,02,00,
62270273,000003C0,false,Tx,0,8,00,00,02,00,00,00,00,00,
62280275,000003C0,false,Tx,0,8,00,00,02,00,00,00,00,00,
18445127489240720294,000001A0,false,Rx,0,8,C3,01,71,F2,3F,00,00,00,
18445127489240720550,000001AC,false,Rx,0,8,DD,01,FF,F3,BF,FF,19,03,
62290281,000003C0,false,Tx,0,8,00,00,02,00,00,00,00,00,
62300289,000003C0,false,Tx,0,8,00,00,02,00,00,00,00,00,
18445127489240740304,000001A0,false,Rx,0,8,B2,02,71,F2,3F,00,00,00,
18445127489240740560,000001AC,false,Rx,0,8,27,02,FF,F3,BF,FF,19,03,
62310283,000003C0,false,Tx,0,8,00,00,02,00,00,00,00,00,
62320294,000003C0,false,Tx,0,8,00,00,02,00,00,00,00,00,
18445127489240760313,000001A0,false,Rx,0,8,C2,03,71,F2,3F,00,00,00,
18445127489240760526,000001AC,false,Rx,0,8,ED,03,FF,F3,BF,FF,19,03,
62330269,000003C0,false,Tx,0,8,00,00,02,00,00,00,00,00,
62340247,000003C0,false,Tx,0,8,00,00,02,00,00,00,00,00,
18445127489240780280,000001A0,false,Rx,0,8,CE,04,71,F2,3F,00,00,00,
18445127489240780536,000001AC,false,Rx,0,8,A8,04,FF,F3,BF,FF,19,03,
18445127489240780792,000002C0,false,Rx,0,8,88,05,00,37,E0,3F,02,00,
62350287,000003C0,false,Tx,0,8,00,00,02,00,00,00,00,00,
62360289,000003C0,false,Tx,0,8,00,00,02,00,00,00,00,00,
18445127489240800289,000001A0,false,Rx,0,8,FB,05,71,F2,3F,00,00,00,
18445127489240800545,000001AC,false,Rx,0,8,09,05,FF,F3,BF,FF,19,03,
62370328,000003C0,false,Tx,0,8,00,00,02,00,00,00,00,00,
18445127489240820299,000001A0,false,Rx,0,8,D9,06,71,F2,3F,00,00,00,
18445127489240820555,000001AC,false,Rx,0,8,DE,06,FF,F3,BF,FF,19,03,
18445127489240830325,1B000085,true,Rx,0,8,85,40,01,05,00,00,00,00,
18445127489240840308,000001A0,false,Rx,0,8,31,07,71,F2,3F,00,00,00,
18445127489240840521,000001AC,false,Rx,0,8,41,07,FF,F3,BF,FF,19,03,
18445127489240860275,000001A0,false,Rx,0,8,A0,08,71,F2,3F,00,00,00,
18445127489240860531,000001AC,false,Rx,0,8,AE,08,FF,F3,BF,FF,19,03,
18445127489240860787,000002C0,false,Rx,0,8,75,06,00,37,E0,3F,02,00,
62438617,000003C0,false,Tx,0,8,00,00,02,00,00,00,00,00,
18445127489240880284,000001A0,false,Rx,0,8,36,09,71,F2,3F,00,00,00,
18445127489240880540,000001AC,false,Rx,0,8,6F,09,FF,F3,BF,FF,19,03,
62448272,000003C0,false,Tx,0,8,00,00,02,00,00,00,00,00,
62458298,000003C0,false,Tx,0,8,00,00,02,00,00,00,00,00,
18445127489240900294,000001A0,false,Rx,0,8,14,0A,71,F2,3F,00,00,00,
18445127489240900507,000001AC,false,Rx,0,8,43,0A,FF,F3,BF,FF,19,03,
62468272,000003C0,false,Tx,0,8,00,00,02,00,00,00,00,00,
62478299,000003C0,false,Tx,0,8,00,00,02,00,00,00,00,00,
18445127489240920260,000001A0,false,Rx,0,8,71,0B,71,F2,3F,00,00,00,
18445127489240920516,000001AC,false,Rx,0,8,EB,0B,FF,F3,BF,FF,19,03,
62488268,000003C0,false,Tx,0,8,00,00,02,00,00,00,00,00,
62498303,000003C0,false,Tx,0,8,00,00,02,00,00,00,00,00,
18445127489240940312,000001A0,false,Rx,0,8,AB,0C,71,F2,3F,00,00,00,
18445127489240940568,000001AC,false,Rx,0,8,AD,0C,FF,F3,BF,FF,19,03,
18445127489240940782,000002C0,false,Rx,0,8,D5,07,00,37,E0,3F,02,00,
62508253,000003C0,false,Tx,0,8,00,00,02,00,00,00,00,00,
62518272,000003C0,false,Tx,0,8,00,00,02,00,00,00,00,00,
18445127489240960279,000001A0,false,Rx,0,8,E9,0D,71,F2,3F,00,00,00,
18445127489240960492,000001AC,false,Rx,0,8,95,0D,FF,F3,BF,FF,19,03,
62528497,000003C0,false,Tx,0,8,00,00,02,00,00,00,00,00,
62538290,000003C0,false,Tx,0,8,00,00,02,00,00,00,00,00,
18445127489240980289,000001A0,false,Rx,0,8,90,0E,71,F2,3F,00,00,00,
18445127489240980502,000001AC,false,Rx,0,8,F2,0E,FF,F3,BF,FF,19,03,
62548268,000003C0,false,Tx,0,8,00,00,02,00,00,00,00,00,
62558240,000003C0,false,Tx,0,8,00,00,02,00,00,00,00,00,
18445127489241000255,000001A0,false,Rx,0,8,83,0F,71,F2,3F,00,00,00,
18445127489241000511,000001AC,false,Rx,0,8,B0,0F,FF,F3,BF,FF,19,03,
62568298,000003C0,false,Tx,0,8,00,00,02,00,00,00,00,00,
62578337,000003C0,false,Tx,0,8,00,00,02,00,00,00,00,00,
18445127489241020265,000001A0,false,Rx,0,8,74,00,71,F2,3F,00,00,00,
18445127489241020521,000001AC,false,Rx,0,8,13,00,FF,F3,BF,FF,19,03,
18445127489241020734,000002C0,false,Rx,0,8,84,08,00,37,E0,3F,02,00,
62588263,000003C0,false,Tx,0,8,00,00,02,00,00,00,00,00,
18445127489241030333,1B000085,true,Rx,0,8,85,40,01,05,00,00,00,00,
62598292,000003C0,false,Tx,0,8,00,00,02,00,00,00,00,00,
18445127489241040304,000001A0,false,Rx,0,8,C3,01,71,F2,3F,00,00,00,
18445127489241040517,000001AC,false,Rx,0,8,DD,01,FF,F3,BF,FF,19,03,
62608290,000003C0,false,Tx,0,8,00,00,02,00,00,00,00,00,
62618292,000003C0,false,Tx,0,8,00,00,02,00,00,00,00,00,
18445127489241060271,000001A0,false,Rx,0,8,B2,02,71,F2,3F,00,00,00,
18445127489241060527,000001AC,false,Rx,0,8,27,02,FF,F3,BF,FF,19,03,
62628265,000003C0,false,Tx,0,8,00,00,02,00,00,00,00,00,
18445127489241080280,000001A0,false,Rx,0,8,C2,03,71,F2,3F,00,00,00,
18445127489241080536,000001AC,false,Rx,0,8,ED,03,FF,F3,BF,FF,19,03,
18445127489241100290,000001A0,false,Rx,0,8,CE,04,71,F2,3F,00,00,00,
18445127489241100503,000001AC,false,Rx,0,8,A8,04,FF,F3,BF,FF,19,03,
18445127489241100759,000002C0,false,Rx,0,8,71,09,00,37,E0,3F,02,00,
18445127489241120299,000001A0,false,Rx,0,8,FB,05,71,F2,3F,00,00,00,
18445127489241120555,000001AC,false,Rx,0,8,09,05,FF,F3,BF,FF,19,03,
62702444,000003C0,false,Tx,0,8,00,00,02,00,00,00,00,00,
18445127489241140437,000001A0,false,Rx,0,8,D9,06,71,F2,3F,00,00,00,
18445127489241140650,000001AC,false,Rx,0,8,DE,06,FF,F3,BF,FF,19,03,
18445127489241140949,17F00085,true,Rx,0,8,20,85,00,00,00,00,01,80,
18445127489241141204,1A5554A7,true,Rx,0,8,02,A0,02,00,00,00,00,80,
62712435,000003C0,false,Tx,0,8,00,00,02,00,00,00,00,00,
62722351,000003C0,false,Tx,0,8,00,00,02,00,00,00,00,00,
18445127489241160318,000001A0,false,Rx,0,8,31,07,71,F2,3F,00,00,00,
18445127489241160574,000001AC,false,Rx,0,8,41,07,FF,F3,BF,FF,19,03,
62732328,000003C0,false,Tx,0,8,00,00,02,00,00,00,00,00,
62742340,000003C0,false,Tx,0,8,00,00,02,00,00,00,00,00,
18445127489241180370,000001A0,false,Rx,0,8,A0,08,71,F2,3F,00,00,00,
18445127489241180626,000001AC,false,Rx,0,8,AE,08,FF,F3,BF,FF,19,03,
18445127489241180882,000002C0,false,Rx,0,8,C5,0A,00,37,E0,3F,02,00,
62752338,000003C0,false,Tx,0,8,00,00,02,00,00,00,00,00,
62762331,000003C0,false,Tx,0,8,00,00,02,00,00,00,00,00,
18445127489241200379,000001A0,false,Rx,0,8,36,09,71,F2,3F,00,00,00,
18445127489241200635,000001AC,false,Rx,0,8,6F,09,FF,F3,BF,FF,19,03,
62772377,000003C0,false,Tx,0,8,00,00,02,00,00,00,00,00,
62782337,000003C0,false,Tx,0,8,00,00,02,00,00,00,00,00,
18445127489241220474,000001A0,false,Rx,0,8,14,0A,71,F2,3F,00,00,00,
18445127489241220688,000001AC,false,Rx,0,8,43,0A,FF,F3,BF,FF,19,03,
62792341,000003C0,false,Tx,0,8,00,00,02,00,00,00,00,00,
18445127489241230500,1B000085,true,Rx,0,8,85,40,01,05,00,00,00,00,
62802336,000003C0,false,Tx,0,8,00,00,02,00,00,00,00,00,
18445127489241240441,000001A0,false,Rx,0,8,71,0B,71,F2,3F,00,00,00,
18445127489241240697,000001AC,false,Rx,0,8,EB,0B,FF,F3,BF,FF,19,03,
62812335,000003C0,false,Tx,0,8,00,00,02,00,00,00,00,00,
62822328,000003C0,false,Tx,0,8,00,00,02,00,00,00,00,00,
18445127489241260365,000001A0,false,Rx,0,8,AB,0C,71,F2,3F,00,00,00,
18445127489241260621,000001AC,false,Rx,0,8,AD,0C,FF,F3,BF,FF,19,03,
18445127489241260834,000002C0,false,Rx,0,8,80,0B,00,37,E0,3F,02,00,
62832297,000003C0,false,Tx,0,8,00,00,02,00,00,00,00,00,
62842317,000003C0,false,Tx,0,8,00,00,02,00,00,00,00,00,
18445127489241280374,000001A0,false,Rx,0,8,E9,0D,71,F2,3F,00,00,00,
18445127489241280588,000001AC,false,Rx,0,8,95,0D,FF,F3,BF,FF,19,03,
62852295,000003C0,false,Tx,0,8,00,00,02,00,00,00,00,00,
62862300,000003C0,false,Tx,0,8,00,00,02,00,00,00,00,00,
18445127489241300341,000001A0,false,Rx,0,8,90,0E,71,F2,3F,00,00,00,
18445127489241300597,000001AC,false,Rx,0,8,F2,0E,FF,F3,BF,FF,19,03,
62872305,000003C0,false,Tx,0,8,00,00,02,00,00,00,00,00,
62882312,000003C0,false,Tx,0,8,00,00,02,00,00,00,00,00,
18445127489241320351,000001A0,false,Rx,0,8,83,0F,71,F2,3F,00,00,00,
18445127489241320607,000001AC,false,Rx,0,8,B0,0F,FF,F3,BF,FF,19,03,
18445127489241340275,000001A0,false,Rx,0,8,74,00,71,F2,3F,00,00,00,
18445127489241340488,000001AC,false,Rx,0,8,13,00,FF,F3,BF,FF,19,03,
18445127489241340744,000002C0,false,Rx,0,8,D8,0C,00,37,E0,3F,02,00,
18445127489241360284,000001A0,false,Rx,0,8,C3,01,71,F2,3F,00,00,00,
18445127489241360497,000001AC,false,Rx,0,8,DD,01,FF,F3,BF,FF,19,03,
18445127489241380251,000001A0,false,Rx,0,8,B2,02,71,F2,3F,00,00,00,
18445127489241380507,000001AC,false,Rx,0,8,27,02,FF,F3,BF,FF,19,03,
62950437,000003C0,false,Tx,0,8,00,00,02,00,00,00,00,00,
62960341,000003C0,false,Tx,0,8,00,00,02,00,00,00,00,00,
18445127489241400260,000001A0,false,Rx,0,8,C2,03,71,F2,3F,00,00,00,
18445127489241400474,000001AC,false,Rx,0,8,ED,03,FF,F3,BF,FF,19,03,
62970311,000003C0,false,Tx,0,8,00,00,02,00,00,00,00,00,
62980292,000003C0,false,Tx,0,8,00,00,02,00,00,00,00,00,
18445127489241420270,000001A0,false,Rx,0,8,CE,04,71,F2,3F,00,00,00,
18445127489241420483,000001AC,false,Rx,0,8,A8,04,FF,F3,BF,FF,19,03,
18445127489241420739,000002C0,false,Rx,0,8,B0,0D,00,37,E0,3F,02,00,
62990278,000003C0,false,Tx,0,8,00,00,02,00,00,00,00,00,
18445127489241430296,1B000085,true,Rx,0,8,85,40,01,05,00,00,00,00,
63000283,000003C0,false,Tx,0,8,00,00,02,00,00,00,00,00,
18445127489241440236,000001A0,false,Rx,0,8,FB,05,71,F2,3F,00,00,00,
18445127489241440492,000001AC,false,Rx,0,8,09,05,FF,F3,BF,FF,19,03,
63010291,000003C0,false,Tx,0,8,00,00,02,00,00,00,00,00,
63020270,000003C0,false,Tx,0,8,00,00,02,00,00,00,00,00,
18445127489241460246,000001A0,false,Rx,0,8,D9,06,71,F2,3F,00,00,00,
18445127489241460502,000001AC,false,Rx,0,8,DE,06,FF,F3,BF,FF,19,03,
63030291,000003C0,false,Tx,0,8,00,00,02,00,00,00,00,00,
63040312,000003C0,false,Tx,0,8,00,00,02,00,00,00,00,00,
18445127489241480255,000001A0,false,Rx,0,8,31,07,71,F2,3F,00,00,00,
18445127489241480511,000001AC,false,Rx,0,8,41,07,FF,F3,BF,FF,19,03,
63050288,000003C0,false,Tx,0,8,00,00,02,00,00,00,00,00,
63060286,000003C0,false,Tx,0,8,00,00,02,00,00,00,00,00,
18445127489241500265,000001A0,false,Rx,0,8,A0,08,71,F2,3F,00,00,00,
18445127489241500478,000001AC,false,Rx,0,8,AE,08,FF,F3,BF,FF,19,03,
18445127489241500734,000002C0,false,Rx,0,8,2E,0E,00,37,E0,3F,02,00,
63070314,000003C0,false,Tx,0,8,00,00,02,00,00,00,00,00,
63080297,000003C0,false,Tx,0,8,00,00,02,00,00,00,00,00,
18445127489241520231,000001A0,false,Rx,0,8,36,09,71,F2,3F,00,00,00,
18445127489241520487,000001AC,false,Rx,0,8,6F,09,FF,F3,BF,FF,19,03,
18445127489241520743,1A555510,true,Rx,0,8,83,30,30,30,30,D8,00,00,
63090280,000003C0,false,Tx,0,8,00,00,02,00,00,00,00,00,
63100273,000003C0,false,Tx,0,8,00,00,02,00,00,00,00,00,
18445127489241540241,000001A0,false,Rx,0,8,14,0A,71,F2,3F,00,00,00,
18445127489241540497,000001AC,false,Rx,0,8,43,0A,FF,F3,BF,FF,19,03,
63110318,000003C0,false,Tx,0,8,00,00,02,00,00,00,00,00,
63120300,000003C0,false,Tx,0,8,00,00,02,00,00,00,00,00,
18445127489241560250,000001A0,false,Rx,0,8,71,0B,71,F2,3F,00,00,00,
18445127489241560464,000001AC,false,Rx,0,8,EB,0B,FF,F3,BF,FF,19,03,
63130275,000003C0,false,Tx,0,8,00,00,02,00,00,00,00,00,
63140286,000003C0,false,Tx,0,8,00,00,02,00,00,00,00,00,
18445127489241580217,000001A0,false,Rx,0,8,AB,0C,71,F2,3F,00,00,00,
18445127489241580473,000001AC,false,Rx,0,8,AD,0C,FF,F3,BF,FF,19,03,
18445127489241580729,000002C0,false,Rx,0,8,02,0F,00,37,E0,3F,02,00,
63150402,000003C0,false,Tx,0,8,00,00,02,00,00,00,00,00,
18445127489241600269,000001A0,false,Rx,0,8,E9,0D,71,F2,3F,00,00,00,
18445127489241600525,000001AC,false,Rx,0,8,95,0D,FF,F3,BF,FF,19,03,
18445127489241620236,000001A0,false,Rx,0,8,90,0E,71,F2,3F,00,00,00,
18445127489241620449,000001AC,false,Rx,0,8,F2,0E,FF,F3,BF,FF,19,03,
18445127489241630347,1B000085,true,Rx,0,8,85,40,01,05,00,00,00,00,
18445127489241640245,000001A0,false,Rx,0,8,83,0F,71,F2,3F,00,00,00,
18445127489241640459,000001AC,false,Rx,0,8,B0,0F,FF,F3,BF,FF,19,03,
18445127489241640757,17F00085,true,Rx,0,8,20,85,00,00,00,00,01,80,
18445127489241641056,1A5554A7,true,Rx,0,8,02,A0,02,00,00,00,00,80,
63215569,000003C0,false,Tx,0,8,00,00,02,00,00,00,00,00,
18445127489241660212,000001A0,false,Rx,0,8,74,00,71,F2,3F,00,00,00,
18445127489241660468,000001AC,false,Rx,0,8,13,00,FF,F3,BF,FF,19,03,
18445127489241660724,000002C0,false,Rx,0,8,9A,00,00,37,E0,3F,02,00,
63225311,000003C0,false,Tx,0,8,00,00,02,00,00,00,00,00,
63235322,000003C0,false,Tx,0,8,00,00,02,00,00,00,00,00,
18445127489241680221,000001A0,false,Rx,0,8,C3,01,71,F2,3F,00,00,00,
18445127489241680477,000001AC,false,Rx,0,8,DD,01,FF,F3,BF,FF,19,03,
63245328,000003C0,false,Tx,0,8,00,00,02,00,00,00,00,00,
63255308,000003C0,false,Tx,0,8,00,00,02,00,00,00,00,00,
18445127489241700231,000001A0,false,Rx,0,8,B2,02,71,F2,3F,00,00,00,
18445127489241700444,000001AC,false,Rx,0,8,27,02,FF,F3,BF,FF,19,03,
63265321,000003C0,false,Tx,0,8,00,00,02,00,00,00,00,00,
63275358,000003C0,false,Tx,0,8,00,00,02,00,00,00,00,00,
18445127489241720283,000001A0,false,Rx,0,8,C2,03,71,F2,3F,00,00,00,
18445127489241720496,000001AC,false,Rx,0,8,ED,03,FF,F3,BF,FF,19,03,
63285370,000003C0,false,Tx,0,8,00,00,02,00,00,00,00,00,
63295336,000003C0,false,Tx,0,8,00,00,02,00,00,00,00,00,
18445127489241740207,000001A0,false,Rx,0,8,CE,04,71,F2,3F,00,00,00,
18445127489241740463,000001AC,false,Rx,0,8,A8,04,FF,F3,BF,FF,19,03,
18445127489241740719,000002C0,false,Rx,0,8,42,01,00,37,E0,3F,02,00,
63305352,000003C0,false,Tx,0,8,00,00,02,00,00,00,00,00,
63315361,000003C0,false,Tx,0,8,00,00,02,00,00,00,00,00,
18445127489241760216,000001A0,false,Rx,0,8,FB,05,71,F2,3F,00,00,00,
18445127489241760472,000001AC,false,Rx,0,8,09,05,FF,F3,BF,FF,19,03,
63325344,000003C0,false,Tx,0,8,00,00,02,00,00,00,00,00,
63335332,000003C0,false,Tx,0,8,00,00,02,00,00,00,00,00,
18445127489241780226,000001A0,false,Rx,0,8,D9,06,71,F2,3F,00,00,00,
18445127489241780439,000001AC,false,Rx,0,8,DE,06,FF,F3,BF,FF,19,03,
63345316,000003C0,false,Tx,0,8,00,00,02,00,00,00,00,00,
63355453,000003C0,false,Tx,0,8,00,00,02,00,00,00,00,00,
18445127489241800193,000001A0,false,Rx,0,8,31,07,71,F2,3F,00,00,00,
18445127489241800449,000001AC,false,Rx,0,8,41,07,FF,F3,BF,FF,19,03,
63365335,000003C0,false,Tx,0,8,00,00,02,00,00,00,00,00,
63375312,000003C0,false,Tx,0,8,00,00,02,00,00,00,00,00,
18445127489241820202,000001A0,false,Rx,0,8,A0,08,71,F2,3F,00,00,00,
18445127489241820458,000001AC,false,Rx,0,8,AE,08,FF,F3,BF,FF,19,03,
18445127489241820671,000002C0,false,Rx,0,8,BD,02,00,37,E0,3F,02,00,
63385312,000003C0,false,Tx,0,8,00,00,02,00,00,00,00,00,
18445127489241830271,1B000085,true,Rx,0,8,85,40,01,05,00,00,00,00,
63395314,000003C0,false,Tx,0,8,00,00,02,00,00,00,00,00,
18445127489241840211,000001A0,false,Rx,0,8,36,09,71,F2,3F,00,00,00,
18445127489241840467,000001AC,false,Rx,0,8,6F,09,FF,F3,BF,FF,19,03,
63405329,000003C0,false,Tx,0,8,00,00,02,00,00,00,00,00,
63415479,000003C0,false,Tx,0,8,00,00,02,00,00,00,00,00,
18445127489241860221,000001A0,false,Rx,0,8,14,0A,71,F2,3F,00,00,00,
18445127489241860434,000001AC,false,Rx,0,8,43,0A,FF,F3,BF,FF,19,03,
18445127489241880188,000001A0,false,Rx,0,8,71,0B,71,F2,3F,00,00,00,
18445127489241880444,000001AC,false,Rx,0,8,EB,0B,FF,F3,BF,FF,19,03,
18445127489241900197,000001A0,false,Rx,0,8,AB,0C,71,F2,3F,00,00,00,
18445127489241900453,000001AC,false,Rx,0,8,AD,0C,FF,F3,BF,FF,19,03,
18445127489241900666,000002C0,false,Rx,0,8,05,03,00,37,E0,3F,02,00,
18445127489241920206,000001A0,false,Rx,0,8,E9,0D,71,F2,3F,00,00,00,
18445127489241920420,000001AC,false,Rx,0,8,95,0D,FF,F3,BF,FF,19,03,
63484812,000003C0,false,Tx,0,8,00,00,02,00,00,00,00,00,
63494426,000003C0,false,Tx,0,8,00,00,02,00,00,00,00,00,
63504381,000003C0,false,Tx,0,8,00,00,02,00,00,00,00,00,
18445127489241940173,000001A0,false,Rx,0,8,90,0E,71,F2,3F,00,00,00,
18445127489241940429,000001AC,false,Rx,0,8,F2,0E,FF,F3,BF,FF,19,03,
63514416,000003C0,false,Tx,0,8,00,00,02,00,00,00,00,00,
63524462,000003C0,false,Tx,0,8,00,00,02,00,00,00,00,00,
18445127489241960183,000001A0,false,Rx,0,8,83,0F,71,F2,3F,00,00,00,
18445127489241960439,000001AC,false,Rx,0,8,B0,0F,FF,F3,BF,FF,19,03,
63534424,000003C0,false,Tx,0,8,00,00,02,00,00,00,00,00,
63544463,000003C0,false,Tx,0,8,00,00,02,00,00,00,00,00,
18445127489241980192,000001A0,false,Rx,0,8,74,00,71,F2,3F,00,00,00,
18445127489241980448,000001AC,false,Rx,0,8,13,00,FF,F3,BF,FF,19,03,
18445127489241980661,000002C0,false,Rx,0,8,9C,04,00,37,E0,3F,02,00,
63554592,000003C0,false,Tx,0,8,00,00,02,00,00,00,00,00,
63564419,000003C0,false,Tx,0,8,00,00,02,00,00,00,00,00,
18445127489242000201,000001A0,false,Rx,0,8,C3,01,71,F2,3F,00,00,00,
18445127489242000415,000001AC,false,Rx,0,8,DD,01,FF,F3,BF,FF,19,03,
63574450,000003C0,false,Tx,0,8,00,00,02,00,00,00,00,00,
63584485,000003C0,false,Tx,0,8,00,00,02,00,00,00,00,00,
18445127489242020211,000001A0,false,Rx,0,8,B2,02,71,F2,3F,00,00,00,
18445127489242020467,000001AC,false,Rx,0,8,27,02,FF,F3,BF,FF,19,03,
63594483,000003C0,false,Tx,0,8,00,00,02,00,00,00,00,00,
18445127489242030237,1B000085,true,Rx,0,8,85,40,01,05,00,00,00,00,
63604359,000003C0,false,Tx,0,8,00,00,02,00,00,00,00,00,
18445127489242040165,000001A0,false,Rx,0,8,C2,03,71,F2,3F,00,00,00,
18445127489242040421,000001AC,false,Rx,0,8,ED,03,FF,F3,BF,FF,19,03,
63614436,000003C0,false,Tx,0,8,00,00,02,00,00,00,00,00,
63624471,000003C0,false,Tx,0,8,00,00,02,00,00,00,00,00,
18445127489242060217,000001A0,false,Rx,0,8,CE,04,71,F2,3F,00,00,00,
18445127489242060430,000001AC,false,Rx,0,8,A8,04,FF,F3,BF,FF,19,03,
18445127489242060686,000002C0,false,Rx,0,8,88,05,00,37,E0,3F,02,00,
63634404,000003C0,false,Tx,0,8,00,00,02,00,00,00,00,00,
63644478,000003C0,false,Tx,0,8,00,00,02,00,00,00,00,00,
18445127489242080226,000001A0,false,Rx,0,8,FB,05,71,F2,3F,00,00,00,
18445127489242080440,000001AC,false,Rx,0,8,09,05,FF,F3,BF,FF,19,03,
63654366,000003C0,false,Tx,0,8,00,00,02,00,00,00,00,00,
63664385,000003C0,false,Tx,0,8,00,00,02,00,00,00,00,00,
18445127489242100193,000001A0,false,Rx,0,8,D9,06,71,F2,3F,00,00,00,
18445127489242100449,000001AC,false,Rx,0,8,DE,06,FF,F3,BF,FF,19,03,
18445127489242120203,000001A0,false,Rx,0,8,31,07,71,F2,3F,00,00,00,
18445127489242120459,000001AC,false,Rx,0,8,41,07,FF,F3,BF,FF,19,03,
18445127489242140212,000001A0,false,Rx,0,8,A0,08,71,F2,3F,00,00,00,
18445127489242140468,000001AC,false,Rx,0,8,AE,08,FF,F3,BF,FF,19,03,
18445127489242140681,000002C0,false,Rx,0,8,75,06,00,37,E0,3F,02,00,
18445127489242140980,17F00085,true,Rx,0,8,20,85,00,00,00,00,01,80,
18445127489242141279,1A5554A7,true,Rx,0,8,02,A0,02,00,00,00,00,80,
18445127489242160179,000001A0,false,Rx,0,8,36,09,71,F2,3F,00,00,00,
18445127489242160435,000001AC,false,Rx,0,8,6F,09,FF,F3,BF,FF,19,03,
63727523,000003C0,false,Tx,0,8,00,00,02,00,00,00,00,00,
63737381,000003C0,false,Tx,0,8,00,00,02,00,00,00,00,00,
18445127489242180188,000001A0,false,Rx,0,8,14,0A,71,F2,3F,00,00,00,
18445127489242180444,000001AC,false,Rx,0,8,43,0A,FF,F3,BF,FF,19,03,
63747401,000003C0,false,Tx,0,8,00,00,02,00,00,00,00,00,
63757392,000003C0,false,Tx,0,8,00,00,02,00,00,00,00,00,
18445127489242200198,000001A0,false,Rx,0,8,71,0B,71,F2,3F,00,00,00,
18445127489242200454,000001AC,false,Rx,0,8,EB,0B,FF,F3,BF,FF,19,03,
63767382,000003C0,false,Tx,0,8,00,00,02,00,00,00,00,00,
63777380,000003C0,false,Tx,0,8,00,00,02,00,00,00,00,00,
18445127489242220207,000001A0,false,Rx,0,8,AB,0C,71,F2,3F,00,00,00,
18445127489242220420,000001AC,false,Rx,0,8,AD,0C,FF,F3,BF,FF,19,03,
18445127489242220676,000002C0,false,Rx,0,8,D5,07,00,37,E0,3F,02,00,
63787433,000003C0,false,Tx,0,8,00,00,02,00,00,00,00,00,
18445127489242230276,1B000085,true,Rx,0,8,85,40,01,05,00,00,00,00,
63797361,000003C0,false,Tx,0,8,00,00,02,00,00,00,00,00,
18445127489242240174,000001A0,false,Rx,0,8,E9,0D,71,F2,3F,00,00,00,
18445127489242240430,000001AC,false,Rx,0,8,95,0D,FF,F3,BF,FF,19,03,
63807389,000003C0,false,Tx,0,8,00,00,02,00,00,00,00,00,
63817363,000003C0,false,Tx,0,8,00,00,02,00,00,00,00,00,
18445127489242260183,000001A0,false,Rx,0,8,90,0E,71,F2,3F,00,00,00,
18445127489242260439,000001AC,false,Rx,0,8,F2,0E,FF,F3,BF,FF,19,03,
63827361,000003C0,false,Tx,0,8,00,00,02,00,00,00,00,00,
63837508,000003C0,false,Tx,0,8,00,00,02,00,00,00,00,00,
18445127489242280193,000001A0,false,Rx,0,8,83,0F,71,F2,3F,00,00,00,
18445127489242280406,000001AC,false,Rx,0,8,B0,0F,FF,F3,BF,FF,19,03,
63847381,000003C0,false,Tx,0,8,00,00,02,00,00,00,00,00,
63857362,000003C0,false,Tx,0,8,00,00,02,00,00,00,00,00,
18445127489242300202,000001A0,false,Rx,0,8,74,00,71,F2,3F,00,00,00,
18445127489242300415,000001AC,false,Rx,0,8,13,00,FF,F3,BF,FF,19,03,
18445127489242300671,000002C0,false,Rx,0,8,84,08,00,37,E0,3F,02,00,
63867377,000003C0,false,Tx,0,8,00,00,02,00,00,00,00,00,
63877419,000003C0,false,Tx,0,8,00,00,02,00,00,00,00,00,
18445127489242320211,000001A0,false,Rx,0,8,C3,01,71,F2,3F,00,00,00,
18445127489242320467,000001AC,false,Rx,0,8,DD,01,FF,F3,BF,FF,19,03,
63887401,000003C0,false,Tx,0,8,00,00,02,00,00,00,00,00,
63897368,000003C0,false,Tx,0,8,00,00,02,00,00,00,00,00,
18445127489242340178,000001A0,false,Rx,0,8,B2,02,71,F2,3F,00,00,00,
18445127489242340392,000001AC,false,Rx,0,8,27,02,FF,F3,BF,FF,19,03,
63907439,000003C0,false,Tx,0,8,00,00,02,00,00,00,00,00,
63917371,000003C0,false,Tx,0,8,00,00,02,00,00,00,00,00,
18445127489242360188,000001A0,false,Rx,0,8,C2,03,71,F2,3F,00,00,00,
18445127489242360401,000001AC,false,Rx,0,8,ED,03,FF,F3,BF,FF,19,03,
63927370,000003C0,false,Tx,0,8,00,00,02,00,00,00,00,00,
18445127489242380154,000001A0,false,Rx,0,8,CE,04,71,F2,3F,00,00,00,
18445127489242380410,000001AC,false,Rx,0,8,A8,04,FF,F3,BF,FF,19,03,
18445127489242380666,000002C0,false,Rx,0,8,71,09,00,37,E0,3F,02,00,
18445127489242400164,000001A0,false,Rx,0,8,FB,05,71,F2,3F,00,00,00,
18445127489242400420,000001AC,false,Rx,0,8,09,05,FF,F3,BF,FF,19,03,
18445127489242420173,000001A0,false,Rx,0,8,D9,06,71,F2,3F,00,00,00,
18445127489242420387,000001AC,false,Rx,0,8,DE,06,FF,F3,BF,FF,19,03,
63991473,000003C0,false,Tx,0,8,00,00,02,00,00,00,00,00,
18445127489242430242,1B000085,true,Rx,0,8,85,40,01,05,00,00,00,00,
64001378,000003C0,false,Tx,0,8,00,00,02,00,00,00,00,00,
18445127489242440225,000001A0,false,Rx,0,8,31,07,71,F2,3F,00,00,00,
18445127489242440481,000001AC,false,Rx,0,8,41,07,FF,F3,BF,FF,19,03,
64011372,000003C0,false,Tx,0,8,00,00,02,00,00,00,00,00,
64021403,000003C0,false,Tx,0,8,00,00,02,00,00,00,00,00,
18445127489242460192,000001A0,false,Rx,0,8,A0,08,71,F2,3F,00,00,00,
18445127489242460448,000001AC,false,Rx,0,8,AE,08,FF,F3,BF,FF,19,03,
18445127489242460704,000002C0,false,Rx,0,8,C5,0A,00,37,E0,3F,02,00,
64031369,000003C0,false,Tx,0,8,00,00,02,00,00,00,00,00,
64041383,000003C0,false,Tx,0,8,00,00,02,00,00,00,00,00,
18445127489242480201,000001A0,false,Rx,0,8,36,09,71,F2,3F,00,00,00,
18445127489242480457,000001AC,false,Rx,0,8,6F,09,FF,F3,BF,FF,19,03,
18445127489242480713,1A555510,true,Rx,0,8,80,34,4E,30,30,D5,00,00,
64051368,000003C0,false,Tx,0,8,00,00,02,00,00,00,00,00,
64061380,000003C0,false,Tx,0,8,00,00,02,00,00,00,00,00,
18445127489242500211,000001A0,false,Rx,0,8,14,0A,71,F2,3F,00,00,00,
18445127489242500467,000001AC,false,Rx,0,8,43,0A,FF,F3,BF,FF,19,03,
64071410,000003C0,false,Tx,0,8,00,00,02,00,00,00,00,00,
64081382,000003C0,false,Tx,0,8,00,00,02,00,00,00,00,00,
18445127489242520178,000001A0,false,Rx,0,8,71,0B,71,F2,3F,00,00,00,
18445127489242520391,000001AC,false,Rx,0,8,EB,0B,FF,F3,BF,FF,19,03,
64091381,000003C0,false,Tx,0,8,00,00,02,00,00,00,00,00,
64101371,000003C0,false,Tx,0,8,00,00,02,00,00,00,00,00,
18445127489242540187,000001A0,false,Rx,0,8,AB,0C,71,F2,3F,00,00,00,
18445127489242540443,000001AC,false,Rx,0,8,AD,0C,FF,F3,BF,FF,19,03,
18445127489242540699,000002C0,false,Rx,0,8,80,0B,00,37,E0,3F,02,00,
64111378,000003C0,false,Tx,0,8,00,00,02,00,00,00,00,00,
64121378,000003C0,false,Tx,0,8,00,00,02,00,00,00,00,00,
18445127489242560196,000001A0,false,Rx,0,8,E9,0D,71,F2,3F,00,00,00,
18445127489242560452,000001AC,false,Rx,0,8,95,0D,FF,F3,BF,FF,19,03,
64131372,000003C0,false,Tx,0,8,00,00,02,00,00,00,00,00,
64141385,000003C0,false,Tx,0,8,00,00,02,00,00,00,00,00,
18445127489242580206,000001A0,false,Rx,0,8,90,0E,71,F2,3F,00,00,00,
18445127489242580419,000001AC,false,Rx,0,8,F2,0E,FF,F3,BF,FF,19,03,
64151338,000003C0,false,Tx,0,8,00,00,02,00,00,00,00,00,
64161344,000003C0,false,Tx,0,8,00,00,02,00,00,00,00,00,
18445127489242600173,000001A0,false,Rx,0,8,83,0F,71,F2,3F,00,00,00,
18445127489242600386,000001AC,false,Rx,0,8,B0,0F,FF,F3,BF,FF,19,03,
64171343,000003C0,false,Tx,0,8,00,00,02,00,00,00,00,00,
64181441,000003C0,false,Tx,0,8,00,00,02,00,00,00,00,00,
18445127489242620182,000001A0,false,Rx,0,8,74,00,71,F2,3F,00,00,00,
18445127489242620438,000001AC,false,Rx,0,8,13,00,FF,F3,BF,FF,19,03,
18445127489242620694,000002C0,false,Rx,0,8,D8,0C,00,37,E0,3F,02,00,
64191344,000003C0,false,Tx,0,8,00,00,02,00,00,00,00,00,
18445127489242630251,1B000085,true,Rx,0,8,85,40,04,01,00,00,00,00,
18445127489242640149,000001A0,false,Rx,0,8,C3,01,71,F2,3F,00,00,00,
18445127489242640362,000001AC,false,Rx,0,8,DD,01,FF,F3,BF,FF,19,03,
18445127489242640661,17F00085,true,Rx,0,8,20,85,00,00,00,00,01,80,
18445127489242640959,1A5554A7,true,Rx,0,8,02,A0,02,00,00,00,00,80,
18445127489242660158,000001A0,false,Rx,0,8,B2,02,71,F2,3F,00,00,00,
18445127489242660372,000001AC,false,Rx,0,8,27,02,FF,F3,BF,FF,19,03,
18445127489242680125,000001A0,false,Rx,0,8,C2,03,71,F2,3F,00,00,00,
18445127489242680381,000001AC,false,Rx,0,8,ED,03,FF,F3,BF,FF,19,03,
18445127489242700134,000001A0,false,Rx,0,8,CE,04,71,F2,3F,00,00,00,
18445127489242700348,000001AC,false,Rx,0,8,A8,04,FF,F3,BF,FF,19,03,
18445127489242700604,000002C0,false,Rx,0,8,B0,0D,00,37,E0,3F,02,00,
64264940,000003C0,false,Tx,0,8,00,00,02,00,00,00,00,00,
64274440,000003C0,false,Tx,0,8,00,00,02,00,00,00,00,00,
64284241,000003C0,false,Tx,0,8,00,00,02,00,00,00,00,00,
18445127489242720144,000001A0,false,Rx,0,8,FB,05,71,F2,3F,00,00,00,
18445127489242720357,000001AC,false,Rx,0,8,09,05,FF,F3,BF,FF,19,03,
64294426,000003C0,false,Tx,0,8,00,00,02,00,00,00,00,00,
64304344,000003C0,false,Tx,0,8,00,00,02,00,00,00,00,00,
18445127489242740153,000001A0,false,Rx,0,8,D9,06,71,F2,3F,00,00,00,
18445127489242740367,000001AC,false,Rx,0,8,DE,06,FF,F3,BF,FF,19,03,
64314456,000003C0,false,Tx,0,8,00,00,02,00,00,00,00,00,
64324350,000003C0,false,Tx,0,8,00,00,02,00,00,00,00,00,
18445127489242760120,000001A0,false,Rx,0,8,31,07,71,F2,3F,00,00,00,
18445127489242760376,000001AC,false,Rx,0,8,41,07,FF,F3,BF,FF,19,03,
64334395,000003C0,false,Tx,0,8,00,00,02,00,00,00,00,00,
64344383,000003C0,false,Tx,0,8,00,00,02,00,00,00,00,00,
18445127489242780129,000001A0,false,Rx,0,8,A0,08,71,F2,3F,00,00,00,
18445127489242780385,000001AC,false,Rx,0,8,AE,08,FF,F3,BF,FF,19,03,
18445127489242780599,000002C0,false,Rx,0,8,2E,0E,00,37,E0,3F,02,00,
64354443,000003C0,false,Tx,0,8,00,00,02,00,00,00,00,00,
64364388,000003C0,false,Tx,0,8,00,00,02,00,00,00,00,00,
18445127489242800139,000001A0,false,Rx,0,8,36,09,71,F2,3F,00,00,00,
18445127489242800352,000001AC,false,Rx,0,8,6F,09,FF,F3,BF,FF,19,03,
64374392,000003C0,false,Tx,0,8,00,00,02,00,00,00,00,00,
64384361,000003C0,false,Tx,0,8,00,00,02,00,00,00,00,00,
18445127489242820106,000001A0,false,Rx,0,8,14,0A,71,F2,3F,00,00,00,
18445127489242820362,000001AC,false,Rx,0,8,43,0A,FF,F3,BF,FF,19,03,
64394396,000003C0,false,Tx,0,8,00,00,02,00,00,00,00,00,
18445127489242830217,1B000085,true,Rx,0,8,85,40,04,01,00,00,00,00,
64404389,000003C0,false,Tx,0,8,00,00,02,00,00,00,00,00,
18445127489242840115,000001A0,false,Rx,0,8,71,0B,71,F2,3F,00,00,00,
18445127489242840328,000001AC,false,Rx,0,8,EB,0B,FF,F3,BF,FF,19,03,
64414352,000003C0,false,Tx,0,8,00,00,02,00,00,00,00,00,
64424400,000003C0,false,Tx,0,8,00,00,02,00,00,00,00,00,
18445127489242860167,000001A0,false,Rx,0,8,AB,0C,71,F2,3F,00,00,00,
18445127489242860380,000001AC,false,Rx,0,8,AD,0C,FF,F3,BF,FF,19,03,
18445127489242860636,000002C0,false,Rx,0,8,02,0F,00,37,E0,3F,02,00,
64434465,000003C0,false,Tx,0,8,00,00,02,00,00,00,00,00,
64444397,000003C0,false,Tx,0,8,00,00,02,00,00,00,00,00,
18445127489242880091,000001A0,false,Rx,0,8,E9,0D,71,F2,3F,00,00,00,
18445127489242880347,000001AC,false,Rx,0,8,95,0D,FF,F3,BF,FF,19,03,
18445127489242900101,000001A0,false,Rx,0,8,90,0E,71,F2,3F,00,00,00,
18445127489242900357,000001AC,false,Rx,0,8,F2,0E,FF,F3,BF,FF,19,03,
18445127489242920153,000001A0,false,Rx,0,8,83,0F,71,F2,3F,00,00,00,
18445127489242920409,000001AC,false,Rx,0,8,B0,0F,FF,F3,BF,FF,19,03,
18445127489242940119,000001A0,false,Rx,0,8,74,00,71,F2,3F,00,00,00,
18445127489242940333,000001AC,false,Rx,0,8,13,00,FF,F3,BF,FF,19,03,
18445127489242940589,000002C0,false,Rx,0,8,9A,00,00,37,E0,3F,02,00,
64505049,000003C0,false,Tx,0,8,00,00,02,00,00,00,00,00,
64514499,000003C0,false,Tx,0,8,00,00,02,00,00,00,00,00,
64524244,000003C0,false,Tx,0,8,00,00,02,00,00,00,00,00,
18445127489242960086,000001A0,false,Rx,0,8,C3,01,71,F2,3F,00,00,00,
18445127489242960342,000001AC,false,Rx,0,8,DD,01,FF,F3,BF,FF,19,03,
64534461,000003C0,false,Tx,0,8,00,00,02,00,00,00,00,00,
64544371,000003C0,false,Tx,0,8,00,00,02,00,00,00,00,00,
18445127489242980096,000001A0,false,Rx,0,8,B2,02,71,F2,3F,00,00,00,
18445127489242980352,000001AC,false,Rx,0,8,27,02,FF,F3,BF,FF,19,03,
64554323,000003C0,false,Tx,0,8,00,00,02,00,00,00,00,00,
64564404,000003C0,false,Tx,0,8,00,00,02,00,00,00,00,00,
18445127489243000105,000001A0,false,Rx,0,8,C2,03,71,F2,3F,00,00,00,
18445127489243000318,000001AC,false,Rx,0,8,ED,03,FF,F3,BF,FF,19,03,
64574497,000003C0,false,Tx,0,8,00,00,02,00,00,00,00,00,
64584457,000003C0,false,Tx,0,8,00,00,02,00,00,00,00,00,
18445127489243020072,000001A0,false,Rx,0,8,CE,04,71,F2,3F,00,00,00,
18445127489243020285,000001AC,false,Rx,0,8,A8,04,FF,F3,BF,FF,19,03,
18445127489243020541,000002C0,false,Rx,0,8,42,01,00,37,E0,3F,02,00,
18445127489243030140,1B000085,true,Rx,0,8,85,40,04,01,00,00,00,00,
64594516,000003C0,false,Tx,0,8,00,00,02,00,00,00,00,00,
64604397,000003C0,false,Tx,0,8,00,00,02,00,00,00,00,00,
18445127489243040094,000001A0,false,Rx,0,8,FB,05,71,F2,3F,00,00,00,
18445127489243040307,000001AC,false,Rx,0,8,09,05,FF,F3,BF,FF,19,03,
64614472,000003C0,false,Tx,0,8,00,00,02,00,00,00,00,00,
18445127489243060061,000003C0,false,Rx,0,8,D9,06,71,F2,3F,00,00,00,
0,00000000,false,Rx,0,0,00,00,00,00,00,00,00,00,
18445127489243060317,000001AC,false,Rx,0,8,DE,06,FF,F3,BF,FF,19,03,
64634472,000003C0,false,Tx,0,8,00,00,02,00,00,00,00,00,
18445127489243080070,000001A0,false,Rx,0,8,31,07,71,F2,3F,00,00,00,
18445127489243080283,000001AC,false,Rx,0,8,41,07,FF,F3,BF,FF,19,03,
64644406,000003C0,false,Tx,0,8,00,00,02,00,00,00,00,00,
64654476,000003C0,false,Tx,0,8,00,00,02,00,00,00,00,00,
64664413,000003C0,false,Tx,0,8,00,00,02,00,00,00,00,00,
18445127489243100122,000001A0,false,Rx,0,8,A0,08,71,F2,3F,00,00,00,
18445127489243100335,000001AC,false,Rx,0,8,AE,08,FF,F3,BF,FF,19,03,
18445127489243100591,000002C0,false,Rx,0,8,BD,02,00,37,E0,3F,02,00,
64674471,000003C0,false,Tx,0,8,00,00,02,00,00,00,00,00,
64684397,000003C0,false,Tx,0,8,00,00,02,00,00,00,00,00,
18445127489243120046,000001A0,false,Rx,0,8,36,09,71,F2,3F,00,00,00,
18445127489243120302,000001AC,false,Rx,0,8,6F,09,FF,F3,BF,FF,19,03,
64694355,000003C0,false,Tx,0,8,00,00,02,00,00,00,00,00,
64704413,000003C0,false,Tx,0,8,00,00,02,00,00,00,00,00,
18445127489243140056,000001A0,false,Rx,0,8,14,0A,71,F2,3F,00,00,00,
18445127489243140312,000001AC,false,Rx,0,8,43,0A,FF,F3,BF,FF,19,03,
18445127489243140568,17F00085,true,Rx,0,8,20,85,00,00,00,00,01,80,
18445127489243140866,1A5554A7,true,Rx,0,8,02,A0,02,00,00,00,00,80,
18445127489243160108,000001A0,false,Rx,0,8,71,0B,71,F2,3F,00,00,00,
18445127489243160321,000001AC,false,Rx,0,8,EB,0B,FF,F3,BF,FF,19,03,
18445127489243180032,000001A0,false,Rx,0,8,AB,0C,71,F2,3F,00,00,00,
18445127489243180288,000001AC,false,Rx,0,8,AD,0C,FF,F3,BF,FF,19,03,
18445127489243180544,000002C0,false,Rx,0,8,05,03,00,37,E0,3F,02,00,
64763504,000003C0,false,Tx,0,8,00,00,02,00,00,00,00,00,
18445127489243200041,000001A0,false,Rx,0,8,E9,0D,71,F2,3F,00,00,00,
18445127489243200254,000001AC,false,Rx,0,8,95,0D,FF,F3,BF,FF,19,03,
64773435,000003C0,false,Tx,0,8,00,00,02,00,00,00,00,00,
64783378,000003C0,false,Tx,0,8,00,00,02,00,00,00,00,00,
18445127489243220051,000001A0,false,Rx,0,8,90,0E,71,F2,3F,00,00,00,
18445127489243220264,000001AC,false,Rx,0,8,F2,0E,FF,F3,BF,FF,19,03,
64793365,000003C0,false,Tx,0,8,00,00,02,00,00,00,00,00,
18445127489243230077,1B000085,true,Rx,0,8,85,40,04,01,00,00,00,00,
64803367,000003C0,false,Tx,0,8,00,00,02,00,00,00,00,00,
18445127489243240017,000001A0,false,Rx,0,8,83,0F,71,F2,3F,00,00,00,
18445127489243240273,000001AC,false,Rx,0,8,B0,0F,FF,F3,BF,FF,19,03,
64813337,000003C0,false,Tx,0,8,00,00,02,00,00,00,00,00,
64823332,000003C0,false,Tx,0,8,00,00,02,00,00,00,00,00,
18445127489243260027,000001A0,false,Rx,0,8,74,00,71,F2,3F,00,00,00,
18445127489243260283,000001AC,false,Rx,0,8,13,00,FF,F3,BF,FF,19,03,
18445127489243260539,000002C0,false,Rx,0,8,9C,04,00,37,E0,3F,02,00,
64833363,000003C0,false,Tx,0,8,00,00,02,00,00,00,00,00,
64843332,000003C0,false,Tx,0,8,00,00,02,00,00,00,00,00,
18445127489243280036,000001A0,false,Rx,0,8,C3,01,71,F2,3F,00,00,00,
18445127489243280292,000001AC,false,Rx,0,8,DD,01,FF,F3,BF,FF,19,03,
64853432,000003C0,false,Tx,0,8,00,00,02,00,00,00,00,00,
64863357,000003C0,false,Tx,0,8,00,00,02,00,00,00,00,00,
18445127489243300046,000001A0,false,Rx,0,8,B2,02,71,F2,3F,00,00,00,
18445127489243300259,000001AC,false,Rx,0,8,27,02,FF,F3,BF,FF,19,03,
64873394,000003C0,false,Tx,0,8,00,00,02,00,00,00,00,00,
64883358,000003C0,false,Tx,0,8,00,00,02,00,00,00,00,00,
18445127489243320012,000001A0,false,Rx,0,8,C2,03,71,F2,3F,00,00,00,
18445127489243320268,000001AC,false,Rx,0,8,ED,03,FF,F3,BF,FF,19,03,
64893378,000003C0,false,Tx,0,8,00,00,02,00,00,00,00,00,
64903384,000003C0,false,Tx,0,8,00,00,02,00,00,00,00,00,
18445127489243340022,000001A0,false,Rx,0,8,CE,04,71,F2,3F,00,00,00,
18445127489243340278,000001AC,false,Rx,0,8,A8,04,FF,F3,BF,FF,19,03,
18445127489243340491,000002C0,false,Rx,0,8,88,05,00,37,E0,3F,02,00,
64913379,000003C0,false,Tx,0,8,00,00,02,00,00,00,00,00,
64923379,000003C0,false,Tx,0,8,00,00,02,00,00,00,00,00,
18445127489243360031,000001A0,false,Rx,0,8,FB,05,71,F2,3F,00,00,00,
18445127489243360287,000001AC,false,Rx,0,8,09,05,FF,F3,BF,FF,19,03,
64933380,000003C0,false,Tx,0,8,00,00,02,00,00,00,00,00,
64943408,000003C0,false,Tx,0,8,00,00,02,00,00,00,00,00,
18445127489243380041,000001A0,false,Rx,0,8,D9,06,71,F2,3F,00,00,00,
18445127489243380254,000001AC,false,Rx,0,8,DE,06,FF,F3,BF,FF,19,03,
64953461,000003C0,false,Tx,0,8,00,00,02,00,00,00,00,00,
64963390,000003C0,false,Tx,0,8,00,00,02,00,00,00,00,00,
18445127489243400093,000001A0,false,Rx,0,8,31,07,71,F2,3F,00,00,00,
18445127489243400306,000001AC,false,Rx,0,8,41,07,FF,F3,BF,FF,19,03,
64973457,000003C0,false,Tx,0,8,00,00,02,00,00,00,00,00,
18445127489243420017,000001A0,false,Rx,0,8,A0,08,71,F2,3F,00,00,00,
18445127489243420273,000001AC,false,Rx,0,8,AE,08,FF,F3,BF,FF,19,03,
18445127489243420486,000002C0,false,Rx,0,8,75,06,00,37,E0,3F,02,00,
18445127489243430085,1B000085,true,Rx,0,8,85,40,04,01,00,00,00,00,
18445127489243440026,000001A0,false,Rx,0,8,36,09,71,F2,3F,00,00,00,
18445127489243440239,000001AC,false,Rx,0,8,6F,09,FF,F3,BF,FF,19,03,
18445127489243440538,1A555510,true,Rx,0,8,81,32,38,4D,20,47,00,00,
18445127489243460036,000001A0,false,Rx,0,8,14,0A,71,F2,3F,00,00,00,
18445127489243460249,000001AC,false,Rx,0,8,43,0A,FF,F3,BF,FF,19,03,
65042864,000003C0,false,Tx,0,8,00,00,02,00,00,00,00,00,
18445127489243480002,000001A0,false,Rx,0,8,71,0B,71,F2,3F,00,00,00,
18445127489243480258,000001AC,false,Rx,0,8,EB,0B,FF,F3,BF,FF,19,03,
65052406,000003C0,false,Tx,0,8,00,00,02,00,00,00,00,00,
65062473,000003C0,false,Tx,0,8,00,00,02,00,00,00,00,00,
18445127489243500012,000001A0,false,Rx,0,8,AB,0C,71,F2,3F,00,00,00,
18445127489243500225,000001AC,false,Rx,0,8,AD,0C,FF,F3,BF,FF,19,03,
18445127489243500481,000002C0,false,Rx,0,8,D5,07,00,37,E0,3F,02,00,
65072422,000003C0,false,Tx,0,8,00,00,02,00,00,00,00,00,
65082478,000003C0,false,Tx,0,8,00,00,02,00,00,00,00,00,
18445127489243520021,000001A0,false,Rx,0,8,E9,0D,71,F2,3F,00,00,00,
18445127489243520234,000001AC,false,Rx,0,8,95,0D,FF,F3,BF,FF,19,03,
65092385,000003C0,false,Tx,0,8,00,00,02,00,00,00,00,00,
65102411,000003C0,false,Tx,0,8,00,00,02,00,00,00,00,00,
18445127489243540031,000001A0,false,Rx,0,8,90,0E,71,F2,3F,00,00,00,
18445127489243540244,000001AC,false,Rx,0,8,F2,0E,FF,F3,BF,FF,19,03,
65112404,000003C0,false,Tx,0,8,00,00,02,00,00,00,00,00,
65122404,000003C0,false,Tx,0,8,00,00,02,00,00,00,00,00,
18445127489243559997,000001A0,false,Rx,0,8,83,0F,71,F2,3F,00,00,00,
18445127489243560253,000001AC,false,Rx,0,8,B0,0F,FF,F3,BF,FF,19,03,
65132411,000003C0,false,Tx,0,8,00,00,02,00,00,00,00,00,
65142408,000003C0,false,Tx,0,8,00,00,02,00,00,00,00,00,
18445127489243580049,000001A0,false,Rx,0,8,74,00,71,F2,3F,00,00,00,
18445127489243580305,000001AC,false,Rx,0,8,13,00,FF,F3,BF,FF,19,03,
18445127489243580519,000002C0,false,Rx,0,8,84,08,00,37,E0,3F,02,00,
65152593,000003C0,false,Tx,0,8,00,00,02,00,00,00,00,00,
65162433,000003C0,false,Tx,0,8,00,00,02,00,00,00,00,00,
18445127489243600016,000001A0,false,Rx,0,8,C3,01,71,F2,3F,00,00,00,
18445127489243600229,000001AC,false,Rx,0,8,DD,01,FF,F3,BF,FF,19,03,
65172471,000003C0,false,Tx,0,8,00,00,02,00,00,00,00,00,
65182424,000003C0,false,Tx,0,8,00,00,02,00,00,00,00,00,
18445127489243619983,000001A0,false,Rx,0,8,B2,02,71,F2,3F,00,00,00,
18445127489243620239,000001AC,false,Rx,0,8,27,02,FF,F3,BF,FF,19,03,
65192428,000003C0,false,Tx,0,8,00,00,02,00,00,00,00,00,
18445127489243630052,1B000085,true,Rx,0,8,85,40,04,01,00,00,00,00,
65202488,000003C0,false,Tx,0,8,00,00,02,00,00,00,00,00,
18445127489243639992,000001A0,false,Rx,0,8,C2,03,71,F2,3F,00,00,00,
18445127489243640248,000001AC,false,Rx,0,8,ED,03,FF,F3,BF,FF,19,03,
18445127489243640760,17F00085,true,Rx,0,8,20,85,00,00,00,00,01,80,
18445127489243641059,1A5554A7,true,Rx,0,8,02,A0,02,00,00,00,00,80,
65212349,000003C0,false,Tx,0,8,00,00,02,00,00,00,00,00,
65222396,000003C0,false,Tx,0,8,00,00,02,00,00,00,00,00,
18445127489243660002,000001A0,false,Rx,0,8,CE,04,71,F2,3F,00,00,00,
18445127489243660215,000001AC,false,Rx,0,8,A8,04,FF,F3,BF,FF,19,03,
18445127489243660471,000002C0,false,Rx,0,8,71,09,00,37,E0,3F,02,00,
18445127489243679968,000001A0,false,Rx,0,8,FB,05,71,F2,3F,00,00,00,
18445127489243680224,000001AC,false,Rx,0,8,09,05,FF,F3,BF,FF,19,03,
18445127489243699978,000001A0,false,Rx,0,8,D9,06,71,F2,3F,00,00,00,
18445127489243700234,000001AC,false,Rx,0,8,DE,06,FF,F3,BF,FF,19,03,
18445127489243719987,000001A0,false,Rx,0,8,31,07,71,F2,3F,00,00,00,
18445127489243720243,000001AC,false,Rx,0,8,41,07,FF,F3,BF,FF,19,03,
65285425,000003C0,false,Tx,0,8,00,00,02,00,00,00,00,00,
65296450,000003C0,false,Tx,0,8,00,00,02,00,00,00,00,00,
18445127489243739997,000001A0,false,Rx,0,8,A0,08,71,F2,3F,00,00,00,
18445127489243740210,000001AC,false,Rx,0,8,AE,08,FF,F3,BF,FF,19,03,
18445127489243740466,000002C0,false,Rx,0,8,C5,0A,00,37,E0,3F,02,00,
65306407,000003C0,false,Tx,0,8,00,00,02,00,00,00,00,00,
65316466,000003C0,false,Tx,0,8,00,00,02,00,00,00,00,00,
18445127489243760006,000001A0,false,Rx,0,8,36,09,71,F2,3F,00,00,00,
18445127489243760219,000001AC,false,Rx,0,8,6F,09,FF,F3,BF,FF,19,03,
65326437,000003C0,false,Tx,0,8,00,00,02,00,00,00,00,00,
65336395,000003C0,false,Tx,0,8,00,00,02,00,00,00,00,00,
18445127489243779973,000001A0,false,Rx,0,8,14,0A,71,F2,3F,00,00,00,
18445127489243780229,000001AC,false,Rx,0,8,43,0A,FF,F3,BF,FF,19,03,
65346398,000003C0,false,Tx,0,8,00,00,02,00,00,00,00,00,
65356387,000003C0,false,Tx,0,8,00,00,02,00,00,00,00,00,
18445127489243799982,000001A0,false,Rx,0,8,71,0B,71,F2,3F,00,00,00,
18445127489243800196,000001AC,false,Rx,0,8,EB,0B,FF,F3,BF,FF,19,03,
65366384,000003C0,false,Tx,0,8,00,00,02,00,00,00,00,00,
65376380,000003C0,false,Tx,0,8,00,00,02,00,00,00,00,00,
18445127489243820034,000001A0,false,Rx,0,8,AB,0C,71,F2,3F,00,00,00,
18445127489243820248,000001AC,false,Rx,0,8,AD,0C,FF,F3,BF,FF,19,03,
18445127489243820504,000002C0,false,Rx,0,8,80,0B,00,37,E0,3F,02,00,
65386397,000003C0,false,Tx,0,8,00,00,02,00,00,00,00,00,
18445127489243830018,1B000085,true,Rx,0,8,85,40,04,01,00,00,00,00,
65396521,000003C0,false,Tx,0,8,00,00,02,00,00,00,00,00,
18445127489243839958,000001A0,false,Rx,0,8,E9,0D,71,F2,3F,00,00,00,
18445127489243840214,000001AC,false,Rx,0,8,95,0D,FF,F3,BF,FF,19,03,
65406396,000003C0,false,Tx,0,8,00,00,02,00,00,00,00,00,
65416563,000003C0,false,Tx,0,8,00,00,02,00,00,00,00,00,
18445127489243859968,000001A0,false,Rx,0,8,90,0E,71,F2,3F,00,00,00,
18445127489243860224,000001AC,false,Rx,0,8,F2,0E,FF,F3,BF,FF,19,03,
65426379,000003C0,false,Tx,0,8,00,00,02,00,00,00,00,00,
65436535,000003C0,false,Tx,0,8,00,00,02,00,00,00,00,00,
18445127489243879977,000001A0,false,Rx,0,8,83,0F,71,F2,3F,00,00,00,
18445127489243880233,000001AC,false,Rx,0,8,B0,0F,FF,F3,BF,FF,19,03,
65446393,000003C0,false,Tx,0,8,00,00,02,00,00,00,00,00,
65456399,000003C0,false,Tx,0,8,00,00,02,00,00,00,00,00,
18445127489243899987,000001A0,false,Rx,0,8,74,00,71,F2,3F,00,00,00,
18445127489243900200,000001AC,false,Rx,0,8,13,00,FF,F3,BF,FF,19,03,
18445127489243900456,000002C0,false,Rx,0,8,D8,0C,00,37,E0,3F,02,00,
65466393,000003C0,false,Tx,0,8,00,00,02,00,00,00,00,00,
65476406,000003C0,false,Tx,0,8,00,00,02,00,00,00,00,00,
18445127489243919953,000001A0,false,Rx,0,8,C3,01,71,F2,3F,00,00,00,
18445127489243920209,000001AC,false,Rx,0,8,DD,01,FF,F3,BF,FF,19,03,
65486399,000003C0,false,Tx,0,8,00,00,02,00,00,00,00,00,
18445127489243939963,000001A0,false,Rx,0,8,B2,02,71,F2,3F,00,00,00,
18445127489243940219,000001AC,false,Rx,0,8,27,02,FF,F3,BF,FF,19,03,
18445127489243959972,000001A0,false,Rx,0,8,C2,03,71,F2,3F,00,00,00,
18445127489243960186,000001AC,false,Rx,0,8,ED,03,FF,F3,BF,FF,19,03,
18445127489243979939,000001A0,false,Rx,0,8,CE,04,71,F2,3F,00,00,00,
18445127489243980195,000001AC,false,Rx,0,8,A8,04,FF,F3,BF,FF,19,03,
18445127489243980451,000002C0,false,Rx,0,8,B0,0D,00,37,E0,3F,02,00,
65551595,000003C0,false,Tx,0,8,00,00,02,00,00,00,00,00,
65561559,000003C0,false,Tx,0,8,00,00,02,00,00,00,00,00,
18445127489243999948,000001A0,false,Rx,0,8,FB,05,71,F2,3F,00,00,00,
18445127489244000204,000001AC,false,Rx,0,8,09,05,FF,F3,BF,FF,19,03,
65571434,000003C0,false,Tx,0,8,00,00,02,00,00,00,00,00,
65581432,000003C0,false,Tx,0,8,00,00,02,00,00,00,00,00,
18445127489244020001,000001A0,false,Rx,0,8,D9,06,71,F2,3F,00,00,00,
18445127489244020214,000001AC,false,Rx,0,8,DE,06,FF,F3,BF,FF,19,03,
65591386,000003C0,false,Tx,0,8,00,00,02,00,00,00,00,00,
18445127489244030069,1B000085,true,Rx,0,8,85,40,04,01,00,00,00,00,
65601385,000003C0,false,Tx,0,8,00,00,02,00,00,00,00,00,
18445127489244040040,000001A0,false,Rx,0,8,31,07,71,F2,3F,00,00,00,
18445127489244040253,000001AC,false,Rx,0,8,41,07,FF,F3,BF,FF,19,03,
65611367,000003C0,false,Tx,0,8,00,00,02,00,00,00,00,00,
65621391,000003C0,false,Tx,0,8,00,00,02,00,00,00,00,00,
18445127489244060049,000001A0,false,Rx,0,8,A0,08,71,F2,3F,00,00,00,
18445127489244060263,000001AC,false,Rx,0,8,AE,08,FF,F3,BF,FF,19,03,
18445127489244060519,000002C0,false,Rx,0,8,2E,0E,00,37,E0,3F,02,00,
65631411,000003C0,false,Tx,0,8,00,00,02,00,00,00,00,00,
65641383,000003C0,false,Tx,0,8,00,00,02,00,00,00,00,00,
18445127489244079973,000001A0,false,Rx,0,8,36,09,71,F2,3F,00,00,00,
18445127489244080229,000001AC,false,Rx,0,8,6F,09,FF,F3,BF,FF,19,03,
65651402,000003C0,false,Tx,0,8,00,00,02,00,00,00,00,00,
65661396,000003C0,false,Tx,0,8,00,00,02,00,00,00,00,00,
18445127489244100026,000001A0,false,Rx,0,8,14,0A,71,F2,3F,00,00,00,
18445127489244100239,000001AC,false,Rx,0,8,43,0A,FF,F3,BF,FF,19,03,
65671407,000003C0,false,Tx,0,8,00,00,02,00,00,00,00,00,
65681405,000003C0,false,Tx,0,8,00,00,02,00,00,00,00,00,
18445127489244120035,000001A0,false,Rx,0,8,71,0B,71,F2,3F,00,00,00,
18445127489244120248,000001AC,false,Rx,0,8,EB,0B,FF,F3,BF,FF,19,03,
65691450,000003C0,false,Tx,0,8,00,00,02,00,00,00,00,00,
65701370,000003C0,false,Tx,0,8,00,00,02,00,00,00,00,00,
18445127489244140002,000001A0,false,Rx,0,8,AB,0C,71,F2,3F,00,00,00,
18445127489244140258,000001AC,false,Rx,0,8,AD,0C,FF,F3,BF,FF,19,03,
18445127489244140514,000002C0,false,Rx,0,8,02,0F,00,37,E0,3F,02,00,
18445127489244140770,17F00085,true,Rx,0,8,20,85,00,00,00,00,01,80,
18445127489244141068,1A5554A7,true,Rx,0,8,02,A0,02,00,00,00,00,80,
65711445,000003C0,false,Tx,0,8,00,00,02,00,00,00,00,00,
65721439,000003C0,false,Tx,0,8,00,00,02,00,00,00,00,00,
18445127489244160011,000001A0,false,Rx,0,8,E9,0D,71,F2,3F,00,00,00,
18445127489244160267,000001AC,false,Rx,0,8,95,0D,FF,F3,BF,FF,19,03,
65731426,000003C0,false,Tx,0,8,00,00,02,00,00,00,00,00,
65741440,000003C0,false,Tx,0,8,00,00,02,00,00,00,00,00,
18445127489244180021,000001A0,false,Rx,0,8,90,0E,71,F2,3F,00,00,00,
18445127489244180277,000001AC,false,Rx,0,8,F2,0E,FF,F3,BF,FF,19,03,
65751441,000003C0,false,Tx,0,8,00,00,02,00,00,00,00,00,
18445127489244199945,000001A0,false,Rx,0,8,83,0F,71,F2,3F,00,00,00,
18445127489244200201,000001AC,false,Rx,0,8,B0,0F,FF,F3,BF,FF,19,03,
18445127489244219954,000001A0,false,Rx,0,8,74,00,71,F2,3F,00,00,00,
18445127489244220210,000001AC,false,Rx,0,8,13,00,FF,F3,BF,FF,19,03,
18445127489244220423,000002C0,false,Rx,0,8,9A,00,00,37,E0,3F,02,00,
18445127489244230023,1B000085,true,Rx,0,8,85,40,04,01,00,00,00,00,
18445127489244239963,000001A0,false,Rx,0,8,C3,01,71,F2,3F,00,00,00,
18445127489244240177,000001AC,false,Rx,0,8,DD,01,FF,F3,BF,FF,19,03,
18445127489244259973,000001A0,false,Rx,0,8,B2,02,71,F2,3F,00,00,00,
18445127489244260186,000001AC,false,Rx,0,8,27,02,FF,F3,BF,FF,19,03,
65825489,000003C0,false,Tx,0,8,00,00,02,00,00,00,00,00,
65835483,000003C0,false,Tx,0,8,00,00,02,00,00,00,00,00,
18445127489244279940,000001A0,false,Rx,0,8,C2,03,71,F2,3F,00,00,00,
18445127489244280196,000001AC,false,Rx,0,8,ED,03,FF,F3,BF,FF,19,03,
65845408,000003C0,false,Tx,0,8,00,00,02,00,00,00,00,00,
65855397,000003C0,false,Tx,0,8,00,00,02,00,00,00,00,00,
18445127489244299949,000001A0,false,Rx,0,8,CE,04,71,F2,3F,00,00,00,
18445127489244300205,000001AC,false,Rx,0,8,A8,04,FF,F3,BF,FF,19,03,
18445127489244300418,000002C0,false,Rx,0,8,42,01,00,37,E0,3F,02,00,
65865406,000003C0,false,Tx,0,8,00,00,02,00,00,00,00,00,
65875402,000003C0,false,Tx,0,8,00,00,02,00,00,00,00,00,
18445127489244319958,000001A0,false,Rx,0,8,FB,05,71,F2,3F,00,00,00,
18445127489244320172,000001AC,false,Rx,0,8,09,05,FF,F3,BF,FF,19,03,
65885464,000003C0,false,Tx,0,8,00,00,02,00,00,00,00,00,
65895461,000003C0,false,Tx,0,8,00,00,02,00,00,00,00,00,
18445127489244339968,000001A0,false,Rx,0,8,D9,06,71,F2,3F,00,00,00,
18445127489244340181,000001AC,false,Rx,0,8,DE,06,FF,F3,BF,FF,19,03,
65905512,000003C0,false,Tx,0,8,00,00,02,00,00,00,00,00,
65915432,000003C0,false,Tx,0,8,00,00,02,00,00,00,00,00,
18445127489244359935,000001A0,false,Rx,0,8,31,07,71,F2,3F,00,00,00,
18445127489244360191,000001AC,false,Rx,0,8,41,07,FF,F3,BF,FF,19,03,
65925442,000003C0,false,Tx,0,8,00,00,02,00,00,00,00,00,
65935440,000003C0,false,Tx,0,8,00,00,02,00,00,00,00,00,
18445127489244379944,000001A0,false,Rx,0,8,A0,08,71,F2,3F,00,00,00,
18445127489244380200,000001AC,false,Rx,0,8,AE,08,FF,F3,BF,FF,19,03,
18445127489244380413,000002C0,false,Rx,0,8,BD,02,00,37,E0,3F,02,00,
65945473,000003C0,false,Tx,0,8,00,00,02,00,00,00,00,00,
65955450,000003C0,false,Tx,0,8,00,00,02,00,00,00,00,00,
18445127489244399953,000001A0,false,Rx,0,8,36,09,71,F2,3F,00,00,00,
18445127489244400167,000001AC,false,Rx,0,8,6F,09,FF,F3,BF,FF,19,03,
18445127489244400465,1A555510,true,Rx,0,8,82,30,35,32,33,AE,00,00,
65965447,000003C0,false,Tx,0,8,00,00,02,00,00,00,00,00,
65975437,000003C0,false,Tx,0,8,00,00,02,00,00,00,00,00,
18445127489244419963,000001A0,false,Rx,0,8,14,0A,71,F2,3F,00,00,00,
18445127489244420176,000001AC,false,Rx,0,8,43,0A,FF,F3,BF,FF,19,03,
65985526,000003C0,false,Tx,0,8,00,00,02,00,00,00,00,00,
18445127489244429989,1B000085,true,Rx,0,8,85,40,04,01,00,00,00,00,
